Chip Vendor ID (l)
    21.314664: p    0: a 0x60: wr reg 0x00 (A) : 
    21.314892: p    1: a 0x61: rd              : 0x01 
Slave Addr XVYCC
    21.316102: p    2: a 0x60: wr reg 0x15 (A) : 0x64 0xd0 0xe6 0xce 0xee 
<Unknown>
    21.317314: p    3: a 0x60: wr reg 0x14 (A) : 0x70 
Chip Device ID (l)
    21.317965: p    4: a 0x60: wr reg 0x02 (A) : 
    21.318183: p    5: a 0x61: rd              : 0x33 0x92 
Interrupt Unmask 6
    21.321278: p    6: a 0x60: wr reg 0x7e (A) : 0x04 
Interrupt Status 5
    21.321927: p    7: a 0x60: wr reg 0x7b (A) : 0x10 
Interrupt Unmask 5
    21.322565: p    8: a 0x60: wr reg 0x7d (A) : 0x10 
<Unknown>
    21.323207: p    9: a 0x60: wr reg 0xb8 (A) : 
    21.323424: p   16: a 0x61: rd              : 0x00 
<Unknown>
    21.323966: p   17: a 0x60: wr reg 0xb8 (A) : 0x01 
<Unknown>
    21.324851: p   18: a 0x60: wr reg 0xb7 (A) : 
    21.325069: p   19: a 0x61: rd              : 0x00 
Interrupt Info Frame Control
    21.325872: p   20: a 0x60: wr reg 0x7a (A) : 
    21.326090: p   21: a 0x61: rd              : 0x00 
Interrupt Info Frame Control
    21.326636: p   22: a 0x60: wr reg 0x7a (A) : 0x40 
Port Switch
    21.327293: p   23: a 0x60: wr reg 0x09 (A) : 0x00 
TMDS Termination Control
    21.327932: p   24: a 0x60: wr reg 0x82 (A) : 0xff 
RX_AUDP_STAT
    21.328830: p   25: a 0x68: wr reg 0x34 (A) : 
    21.329048: p   32: a 0x69: rd              : 0x00 
<Unknown>
    21.329649: p   33: a 0x60: wr reg 0xb8 (A) : 
    21.329867: p   34: a 0x61: rd              : 0x01 
<Unknown>
    21.330412: p   35: a 0x60: wr reg 0xb7 (A) : 
    21.330630: p   36: a 0x61: rd              : 0x00 
Interrupt Info Frame Control
    21.331196: p   37: a 0x60: wr reg 0x7a (A) : 
    21.331414: p   38: a 0x61: rd              : 0x40 
Interrupt Info Frame Control
    21.331974: p   39: a 0x60: wr reg 0x7a (A) : 
    21.332192: p   40: a 0x61: rd              : 0x40 
Interrupt Info Frame Control
    21.332960: p   41: a 0x60: wr reg 0x7a (A) : 0x41 
RX_AUDP_MUTE
    21.333610: p   48: a 0x68: wr reg 0x37 (A) : 
    21.333828: p   49: a 0x69: rd              : 0x00 
RX_AUDP_MUTE
    21.334372: p   50: a 0x68: wr reg 0x37 (A) : 0x02 
RX_AUDIO_CTRL
    21.335013: p   51: a 0x68: wr reg 0x29 (A) : 0x14 
RX_I2S_CTRL2
    21.335659: p   52: a 0x68: wr reg 0x27 (A) : 
    21.335877: p   53: a 0x69: rd              : 0x01 
SW Reset 2
    21.336547: p   54: a 0x60: wr reg 0x07 (A) : 
    21.336801: p   55: a 0x61: rd              : 0x00 
SW Reset 2
    21.337353: p   56: a 0x60: wr reg 0x07 (A) : 0x08 
System Ctrl 1
    21.337988: p   57: a 0x60: wr reg 0x08 (A) : 
    21.338206: p   64: a 0x61: rd              : 0x04 
System Ctrl 1
    21.338752: p   65: a 0x60: wr reg 0x08 (A) : 0x04 
Port Switch
    21.339395: p   66: a 0x60: wr reg 0x09 (A) : 
    21.339612: p   67: a 0x61: rd              : 0x00 
Port Switch
    21.340154: p   68: a 0x60: wr reg 0x09 (A) : 0x00 
<Unknown>
    21.340985: p   69: a 0x60: wr reg 0x2f (A) : 0x00 0x00 
<Unknown>
    21.341722: p   70: a 0x60: wr reg 0x2f (A) : 0x00 0x00 
System Status
    21.361517: p   71: a 0x60: wr reg 0x06 (A) : 
    21.361735: p   72: a 0x61: rd              : 0x30 
RX_AUDP_STAT
    21.374780: p   73: a 0x68: wr reg 0x34 (A) : 
    21.374999: p   80: a 0x69: rd              : 0x00 
<Unknown>
    21.397067: p   81: a 0x68: wr reg 0xbf (A) : 0x05 
Interrupt Info Frame Control
    21.397710: p   82: a 0x60: wr reg 0x7a (A) : 
    21.397928: p   83: a 0x61: rd              : 0x41 
Interrupt Info Frame Control
    21.398474: p   84: a 0x60: wr reg 0x7a (A) : 0x49 
Interrupt Status 3
    21.399117: p   85: a 0x60: wr reg 0x73 (A) : 0x08 
Interrupt Status 8
    21.399767: p   86: a 0x60: wr reg 0x91 (A) : 0x08 
INFM_CLR
    21.400604: p   87: a 0x60: wr reg 0x94 (A) : 
    21.400824: p   88: a 0x61: rd              : 0x00 
<Unknown>
    21.401394: p   89: a 0x68: wr reg 0x7f (A) : 0x81 
Interrupt Status 3
    21.402034: p   96: a 0x60: wr reg 0x73 (A) : 0x02 
Interrupt Unmask 3
    21.402697: p   97: a 0x60: wr reg 0x77 (A) : 0x02 
RX_AUDP_STAT
    21.403350: p   98: a 0x68: wr reg 0x34 (A) : 
    21.403568: p   99: a 0x69: rd              : 0x00 
RX_AUDP_STAT
    21.422199: p  100: a 0x68: wr reg 0x34 (A) : 
    21.422483: p  101: a 0x69: rd              : 0x00 
RX_AUDP_STAT
    21.450522: p  102: a 0x68: wr reg 0x34 (A) : 
    21.450739: p  103: a 0x69: rd              : 0x00 
SW Reset
    21.465046: p  104: a 0x60: wr reg 0x05 (A) : 
    21.465264: p  105: a 0x61: rd              : 0x00 
SW Reset
    21.465812: p  112: a 0x60: wr reg 0x05 (A) : 0x10 
<Unknown>
    21.466457: p  113: a 0x68: wr reg 0x18 (A) : 0x54 
<Unknown>
    21.467099: p  114: a 0x68: wr reg 0x13 (A) : 0x0f 0x20 0x00 0x00 
System Ctrl 1
    21.468049: p  115: a 0x60: wr reg 0x08 (A) : 0x04 
* RX_HDMI_CRIT1
    21.468906: p  116: a 0x68: wr reg 0x35 (A) : 0x06 
* RX_HDMI_CRIT2
    21.469548: p  117: a 0x68: wr reg 0x38 (A) : 0x0c 
Interrupt Control
    21.470190: p  118: a 0x60: wr reg 0x79 (A) : 0x06 
RX_AUDP_MUTE
    21.470832: p  119: a 0x68: wr reg 0x37 (A) : 0x03 
<Unknown>
    21.471475: p  120: a 0x60: wr reg 0x57 (A) : 
    21.471693: p  121: a 0x61: rd              : 0x03 
<Unknown>
    21.472238: p  128: a 0x60: wr reg 0x57 (A) : 0x02 
Auto Exception Control
    21.473052: p  129: a 0x60: wr reg 0xb5 (A) : 0x00 
<Unknown>
    21.473692: p  130: a 0x60: wr reg 0xbc (A) : 0x02 
AEC Exception Enable 3
    21.474333: p  131: a 0x60: wr reg 0xbb (A) : 0x01 
<Unknown>
    21.474978: p  132: a 0xee: wr reg 0xfa (A) : 0x0f 
<Unknown>
    21.475621: p  133: a 0xee: wr reg 0xfc (A) : 0x0a 
<Unknown>
    21.476261: p  134: a 0x60: wr reg 0x0e (A) : 0x40 
TMDS Termination Control 2
    21.477044: p  135: a 0x60: wr reg 0x83 (A) : 0x60 
<Unknown>
    21.477687: p  136: a 0x64: wr reg 0x87 (A) : 0x43 
<Unknown>
    21.478330: p  137: a 0x64: wr reg 0x81 (A) : 0x18 
DRIVE_CNTL
    21.479872: p  144: a 0xee: wr reg 0xe9 (A) : 0x32 
* RX_ECC_CTRL
    21.481541: p  145: a 0x64: wr reg 0xbb (A) : 0x04 
<Unknown>
    21.482798: p  146: a 0x64: wr reg 0x92 (A) : 0x8a 0xaa 0x1a 0x2a 
<Unknown>
    21.484520: p  147: a 0x64: wr reg 0xb5 (A) : 0x40 
<Unknown>
    21.485176: p  148: a 0x64: wr reg 0x89 (A) : 0x00 
<Unknown>
    21.485819: p  149: a 0xee: wr reg 0xe5 (A) : 0x02 
<Unknown>
    21.486462: p  150: a 0x68: wr reg 0xff (A) : 0x04 
<Unknown>
    21.487150: p  151: a 0x60: wr reg 0xb8 (A) : 
    21.487368: p  152: a 0x61: rd              : 0x01 
<Unknown>
    21.487914: p  153: a 0x60: wr reg 0xb7 (A) : 
    21.488132: p  256: a 0x61: rd              : 0x00 
Interrupt Info Frame Control
    21.488918: p  257: a 0x60: wr reg 0x7a (A) : 
    21.489135: p  258: a 0x61: rd              : 0x49 
Interrupt Unmask 1
    21.489722: p  259: a 0x60: wr reg 0x75 (A) : 0x02 0x98 0x4f 0x40 
Interrupt Unmask 5
    21.490675: p  260: a 0x60: wr reg 0x7d (A) : 0x59 0x97 
Interrupt Unmask 7
    21.491422: p  261: a 0x60: wr reg 0x92 (A) : 0x00 0xc0 
Interrupt Info Frame Control
    21.492171: p  262: a 0x60: wr reg 0x7a (A) : 0x2f 
INFM_CLR
    21.492965: p  263: a 0x60: wr reg 0x94 (A) : 0x40 
RX_AUDIO_SWAP
    21.493620: p  264: a 0x68: wr reg 0x2e (A) : 
    21.493838: p  265: a 0x69: rd              : 0x02 
RX_I2S_CTRL1
    21.494385: p  272: a 0x68: wr reg 0x26 (A) : 0x40 
ACR Configuration 1
    21.495027: p  273: a 0x60: wr reg 0x88 (A) : 0x88 
ACR Configuration 2
    21.495667: p  274: a 0x60: wr reg 0x89 (A) : 0x16 
RX_AUDIO_CTRL
    21.496310: p  275: a 0x68: wr reg 0x29 (A) : 0x04 
AEC Exception Enable 1
    21.497081: p  276: a 0x60: wr reg 0xb6 (A) : 0xc1 0x07 0x01 
RX_AUDP_MUTE
    21.497937: p  277: a 0x68: wr reg 0x37 (A) : 
    21.498155: p  278: a 0x69: rd              : 0x73 
RX_AUDIO_CTRL
    21.498703: p  279: a 0x68: wr reg 0x29 (A) : 0x14 
Interrupt Unmask 5
    21.499352: p  280: a 0x60: wr reg 0x7d (A) : 0x19 
RX_I2S_CTRL2
    21.499994: p  281: a 0x68: wr reg 0x27 (A) : 
    21.500212: p  288: a 0x69: rd              : 0x01 
Interrupt Info Frame Control
    21.501005: p  289: a 0x60: wr reg 0x7a (A) : 
    21.501223: p  290: a 0x61: rd              : 0x2f 
Interrupt Status 3
    21.501772: p  291: a 0x60: wr reg 0x73 (A) : 0x04 
TMDS Analog Control 2
    21.502459: p  292: a 0x60: wr reg 0x81 (A) : 0x00 
Deep Color Status
    21.503106: p  293: a 0x60: wr reg 0x61 (A) : 
    21.503324: p  294: a 0x61: rd              : 0x00 
<Unknown>
    21.503892: p  295: a 0x60: wr reg 0xc5 (A) : 0x40 0x0b 
Video Channel PCLK Count Base
    21.504849: p  296: a 0x60: wr reg 0x69 (A) : 0xff 
System SW Reset 2
    21.505494: p  297: a 0x60: wr reg 0x0b (A) : 
    21.505712: p  304: a 0x61: rd              : 0x00 
System SW Reset 2
    21.506259: p  305: a 0x60: wr reg 0x0b (A) : 0x40 
SW Reset 2
    21.506905: p  306: a 0x60: wr reg 0x07 (A) : 
    21.507123: p  307: a 0x61: rd              : 0x08 
SW Reset 2
    21.507670: p  308: a 0x60: wr reg 0x07 (A) : 0x0a 
SW Reset 2
    21.508317: p  309: a 0x60: wr reg 0x07 (A) : 0x0a 
SW Reset 2
    21.509087: p  310: a 0x60: wr reg 0x07 (A) : 0x08 
SW Reset 2
    21.509732: p  311: a 0x60: wr reg 0x07 (A) : 0x08 
<Unknown>
    21.510381: p  312: a 0x60: wr reg 0x2f (A) : 0x00 0x00 
<Unknown>
    21.511129: p  313: a 0x60: wr reg 0x2f (A) : 0x00 0x00 
<Unknown>
    21.511882: p  320: a 0x60: wr reg 0x2e (A) : 0x80 
Interrupt Unmask 1
    21.512767: p  321: a 0x60: wr reg 0x75 (A) : 0x01 
Interrupt Status 1
    21.513410: p  322: a 0x60: wr reg 0x71 (A) : 0x03 
RX_AUDP_MUTE
    21.514059: p  323: a 0x68: wr reg 0x37 (A) : 
    21.514277: p  324: a 0x69: rd              : 0x73 
RX_AUDP_STAT
    21.525108: p  325: a 0x68: wr reg 0x34 (A) : 
    21.525326: p  326: a 0x69: rd              : 0x00 
Deep Color Status
    21.530601: p  327: a 0x60: wr reg 0x61 (A) : 
    21.530890: p  328: a 0x61: rd              : 0x00 
System Status
    21.569094: p  329: a 0x60: wr reg 0x06 (A) : 
    21.569312: p  336: a 0x61: rd              : 0x20 
<Unknown>
    21.571421: p  337: a 0x68: wr reg 0xbf (A) : 0x05 
Interrupt Info Frame Control
    21.572064: p  338: a 0x60: wr reg 0x7a (A) : 
    21.572282: p  339: a 0x61: rd              : 0x2f 
Interrupt Status 3
    21.572974: p  340: a 0x60: wr reg 0x73 (A) : 0x08 
Interrupt Status 8
    21.573622: p  341: a 0x60: wr reg 0x91 (A) : 0x08 
INFM_CLR
    21.574264: p  342: a 0x60: wr reg 0x94 (A) : 
    21.574481: p  343: a 0x61: rd              : 0x40 
<Unknown>
    21.575049: p  344: a 0x68: wr reg 0x7f (A) : 0x81 
Interrupt Status 3
    21.575690: p  345: a 0x60: wr reg 0x73 (A) : 0x02 
RX_AUDP_STAT
    21.576555: p  352: a 0x68: wr reg 0x34 (A) : 
    21.576774: p  353: a 0x69: rd              : 0x00 
Hot plug Control
    21.580838: p  354: a 0x60: wr reg 0x10 (A) : 0x00 
<Unknown>
    21.581559: p  355: a 0x60: wr reg 0xb8 (A) : 
    21.581777: p  356: a 0x61: rd              : 0x01 
<Unknown>
    21.582325: p  357: a 0x60: wr reg 0xb7 (A) : 
    21.582542: p  358: a 0x61: rd              : 0x07 
Interrupt Info Frame Control
    21.583112: p  359: a 0x60: wr reg 0x7a (A) : 
    21.583330: p  360: a 0x61: rd              : 0x2f 
Interrupt Info Frame Control
    21.583876: p  361: a 0x60: wr reg 0x7a (A) : 0x6f 
Port Switch
    21.584773: p  368: a 0x60: wr reg 0x09 (A) : 0x00 
TMDS Termination Control
    21.585416: p  369: a 0x60: wr reg 0x82 (A) : 0xff 
RX_AUDP_STAT
    21.586067: p  370: a 0x68: wr reg 0x34 (A) : 
    21.586285: p  371: a 0x69: rd              : 0x00 
<Unknown>
    21.586885: p  372: a 0x60: wr reg 0xb8 (A) : 
    21.587102: p  373: a 0x61: rd              : 0x01 
<Unknown>
    21.587650: p  374: a 0x60: wr reg 0xb7 (A) : 
    21.587868: p  375: a 0x61: rd              : 0x07 
Interrupt Info Frame Control
    21.588682: p  376: a 0x60: wr reg 0x7a (A) : 
    21.588900: p  377: a 0x61: rd              : 0x6f 
Interrupt Info Frame Control
    21.589465: p  384: a 0x60: wr reg 0x7a (A) : 
    21.589683: p  385: a 0x61: rd              : 0x6f 
RX_AUDP_MUTE
    21.590235: p  386: a 0x68: wr reg 0x37 (A) : 
    21.590453: p  387: a 0x69: rd              : 0x73 
SW Reset 2
    21.591007: p  388: a 0x60: wr reg 0x07 (A) : 
    21.591225: p  389: a 0x61: rd              : 0x08 
System Ctrl 1
    21.591769: p  390: a 0x60: wr reg 0x08 (A) : 
    21.591987: p  391: a 0x61: rd              : 0x04 
System Ctrl 1
    21.592768: p  392: a 0x60: wr reg 0x08 (A) : 0x04 
<Unknown>
    21.593432: p  393: a 0x60: wr reg 0x2f (A) : 0x00 0x00 
<Unknown>
    21.594171: p  400: a 0x60: wr reg 0x2f (A) : 0x00 0x00 
Deep Color Status
    21.605079: p  401: a 0x60: wr reg 0x61 (A) : 
    21.605296: p  402: a 0x61: rd              : 0x00 
RX_AUDP_STAT
    21.607258: p  403: a 0x68: wr reg 0x34 (A) : 
    21.607476: p  404: a 0x69: rd              : 0x00 
<Unknown>
    21.633059: p  405: a 0x68: wr reg 0xbf (A) : 0x05 
Interrupt Info Frame Control
    21.633702: p  406: a 0x60: wr reg 0x7a (A) : 
    21.633919: p  407: a 0x61: rd              : 0x6f 
Interrupt Status 3
    21.634467: p  408: a 0x60: wr reg 0x73 (A) : 0x08 
Interrupt Status 8
    21.635116: p  409: a 0x60: wr reg 0x91 (A) : 0x08 
INFM_CLR
    21.635755: p  512: a 0x60: wr reg 0x94 (A) : 
    21.635973: p  513: a 0x61: rd              : 0x40 
<Unknown>
    21.636778: p  514: a 0x68: wr reg 0x7f (A) : 0x81 
Interrupt Status 3
    21.637419: p  515: a 0x60: wr reg 0x73 (A) : 0x02 
RX_AUDP_STAT
    21.638086: p  516: a 0x68: wr reg 0x34 (A) : 
    21.638304: p  517: a 0x69: rd              : 0x00 
Deep Color Status
    21.658447: p  518: a 0x60: wr reg 0x61 (A) : 
    21.658665: p  519: a 0x61: rd              : 0x00 
RX_AUDP_STAT
    21.659790: p  520: a 0x68: wr reg 0x34 (A) : 
    21.660008: p  521: a 0x69: rd              : 0x00 
RX_AUDP_STAT
    21.682463: p  528: a 0x68: wr reg 0x34 (A) : 
    21.682681: p  529: a 0x69: rd              : 0x00 
RX_AUDP_STAT
    21.709056: p  530: a 0x68: wr reg 0x34 (A) : 
    21.709273: p  531: a 0x69: rd              : 0x00 
Deep Color Status
    21.717583: p  532: a 0x60: wr reg 0x61 (A) : 
    21.717801: p  533: a 0x61: rd              : 0x00 
RX_AUDP_STAT
    21.733102: p  534: a 0x68: wr reg 0x34 (A) : 
    21.733320: p  535: a 0x69: rd              : 0x00 
RX_AUDP_STAT
    21.761066: p  536: a 0x68: wr reg 0x34 (A) : 
    21.761284: p  537: a 0x69: rd              : 0x00 
System Status
    21.771466: p  544: a 0x60: wr reg 0x06 (A) : 
    21.771684: p  545: a 0x61: rd              : 0x20 
Deep Color Status
    21.772512: p  546: a 0x60: wr reg 0x61 (A) : 
    21.772731: p  547: a 0x61: rd              : 0x00 
RX_AUDP_STAT
    21.789053: p  548: a 0x68: wr reg 0x34 (A) : 
    21.789271: p  549: a 0x69: rd              : 0x00 
RX_AUDP_STAT
    21.814457: p  550: a 0x68: wr reg 0x34 (A) : 
    21.814675: p  551: a 0x69: rd              : 0x00 
Deep Color Status
    21.830540: p  552: a 0x60: wr reg 0x61 (A) : 
    21.830758: p  553: a 0x61: rd              : 0x00 
RX_AUDP_STAT
    21.841051: p  560: a 0x68: wr reg 0x34 (A) : 
    21.841269: p  561: a 0x69: rd              : 0x00 
RX_AUDP_STAT
    21.873068: p  562: a 0x68: wr reg 0x34 (A) : 
    21.873286: p  563: a 0x69: rd              : 0x00 
Deep Color Status
    21.885083: p  564: a 0x60: wr reg 0x61 (A) : 
    21.885301: p  565: a 0x61: rd              : 0x00 
RX_AUDP_STAT
    21.901046: p  566: a 0x68: wr reg 0x34 (A) : 
    21.901264: p  567: a 0x69: rd              : 0x00 
RX_AUDP_STAT
    21.931328: p  568: a 0x68: wr reg 0x34 (A) : 
    21.931546: p  569: a 0x69: rd              : 0x00 
Deep Color Status
    21.941613: p  576: a 0x60: wr reg 0x61 (A) : 
    21.941831: p  577: a 0x61: rd              : 0x00 
RX_AUDP_STAT
    21.953041: p  578: a 0x68: wr reg 0x34 (A) : 
    21.953259: p  579: a 0x69: rd              : 0x00 
System Status
    21.981095: p  580: a 0x60: wr reg 0x06 (A) : 
    21.981313: p  581: a 0x61: rd              : 0x20 
RX_AUDP_STAT
    21.981953: p  582: a 0x68: wr reg 0x34 (A) : 
    21.982171: p  583: a 0x69: rd              : 0x00 
Deep Color Status
    21.994491: p  584: a 0x60: wr reg 0x61 (A) : 
    21.994709: p  585: a 0x61: rd              : 0x00 
RX_AUDP_STAT
    22.009041: p  592: a 0x68: wr reg 0x34 (A) : 
    22.009259: p  593: a 0x69: rd              : 0x00 
RX_AUDP_STAT
    22.038484: p  594: a 0x68: wr reg 0x34 (A) : 
    22.038702: p  595: a 0x69: rd              : 0x00 
Deep Color Status
    22.054471: p  596: a 0x60: wr reg 0x61 (A) : 
    22.054689: p  597: a 0x61: rd              : 0x00 
RX_AUDP_STAT
    22.065038: p  598: a 0x68: wr reg 0x34 (A) : 
    22.065256: p  599: a 0x69: rd              : 0x00 
EN_EDID
    22.152504: p  600: a 0xee: wr reg 0x01 (A) : 0x00 
HDP_HW_CTRL
    22.153206: p  601: a 0xee: wr reg 0x13 (A) : 0xff 
EDID_FIFO_SEL
    22.153859: p  608: a 0xee: wr reg 0x04 (A) : 0x01 
EDID_FIFO_ADDR
    22.154510: p  609: a 0xee: wr reg 0x02 (A) : 0x00 
EDID_FIFO_DATA
    22.155179: p  610: a 0xee: wr reg 0x03 (A) : 0x00 0xff 0xff 0xff 0xff 0xff 0xff 0x00 0x4d 0x29 0x34 0x93 0x01 0x00 0x00 0x00 0x00 0x14 0x01 0x03 0x80 0x33 0x1d 0x78 0x0a 0x9f 0x75 0xa5 0x55 0x4d 0x99 0x26 0x0e 0x50 0x54 0xbf 0xef 0x80 0x71 0x4f 0x81 0x00 0x81 0x80 0x95 0x00 0x95 0x0f 0xb3 0x00 0x01 0x01 0x01 0x01 0x02 0x3a 0x80 0x18 0x71 0x38 0x2d 0x40 0x58 0x2c 0x45 0x00 0xfe 0x1f 0x11 0x00 0x00 0x1e 0x01 0x1d 0x80 0x18 0x71 0x1c 0x16 0x20 0x58 0x2c 0x25 0x00 0xfe 0x1f 0x11 0x00 0x00 0x9e 0x00 0x00 0x00 0xfc 0x00 0x53 0x49 0x49 0x20 0x52 0x45 0x50 0x45 0x41 0x54 0x45 0x52 0x0a 0x00 0x00 0x00 0xfd 0x00 0x32 0x4b 0x10 0x53 0x11 0x00 0x0a 0x20 0x20 0x20 0x20 0x20 0x20 0x01 0x29 
EDID_FIFO_SEL
    22.169317: p  611: a 0xee: wr reg 0x04 (A) : 0x02 
EDID_FIFO_ADDR
    22.169966: p  612: a 0xee: wr reg 0x02 (A) : 0x00 
EDID_FIFO_DATA
    22.170635: p  613: a 0xee: wr reg 0x03 (A) : 0x00 0xff 0xff 0xff 0xff 0xff 0xff 0x00 0x4d 0x29 0x34 0x93 0x01 0x00 0x00 0x00 0x00 0x14 0x01 0x03 0x80 0x33 0x1d 0x78 0x0a 0x9f 0x75 0xa5 0x55 0x4d 0x99 0x26 0x0e 0x50 0x54 0xbf 0xef 0x80 0x71 0x4f 0x81 0x00 0x81 0x80 0x95 0x00 0x95 0x0f 0xb3 0x00 0x01 0x01 0x01 0x01 0x02 0x3a 0x80 0x18 0x71 0x38 0x2d 0x40 0x58 0x2c 0x45 0x00 0xfe 0x1f 0x11 0x00 0x00 0x1e 0x01 0x1d 0x80 0x18 0x71 0x1c 0x16 0x20 0x58 0x2c 0x25 0x00 0xfe 0x1f 0x11 0x00 0x00 0x9e 0x00 0x00 0x00 0xfc 0x00 0x53 0x49 0x49 0x20 0x52 0x45 0x50 0x45 0x41 0x54 0x45 0x52 0x0a 0x00 0x00 0x00 0xfd 0x00 0x32 0x4b 0x10 0x53 0x11 0x00 0x0a 0x20 0x20 0x20 0x20 0x20 0x20 0x01 0x29 
EDID_FIFO_SEL
    22.184769: p  614: a 0xee: wr reg 0x04 (A) : 0x04 
EDID_FIFO_ADDR
    22.185420: p  615: a 0xee: wr reg 0x02 (A) : 0x00 
EDID_FIFO_DATA
    22.186087: p  616: a 0xee: wr reg 0x03 (A) : 0x00 0xff 0xff 0xff 0xff 0xff 0xff 0x00 0x4d 0x29 0x34 0x93 0x01 0x00 0x00 0x00 0x00 0x14 0x01 0x03 0x80 0x33 0x1d 0x78 0x0a 0x9f 0x75 0xa5 0x55 0x4d 0x99 0x26 0x0e 0x50 0x54 0xbf 0xef 0x80 0x71 0x4f 0x81 0x00 0x81 0x80 0x95 0x00 0x95 0x0f 0xb3 0x00 0x01 0x01 0x01 0x01 0x02 0x3a 0x80 0x18 0x71 0x38 0x2d 0x40 0x58 0x2c 0x45 0x00 0xfe 0x1f 0x11 0x00 0x00 0x1e 0x01 0x1d 0x80 0x18 0x71 0x1c 0x16 0x20 0x58 0x2c 0x25 0x00 0xfe 0x1f 0x11 0x00 0x00 0x9e 0x00 0x00 0x00 0xfc 0x00 0x53 0x49 0x49 0x20 0x52 0x45 0x50 0x45 0x41 0x54 0x45 0x52 0x0a 0x00 0x00 0x00 0xfd 0x00 0x32 0x4b 0x10 0x53 0x11 0x00 0x0a 0x20 0x20 0x20 0x20 0x20 0x20 0x01 0x29 
EDID_FIFO_SEL
    22.200035: p  617: a 0xee: wr reg 0x04 (A) : 0x08 
EDID_FIFO_ADDR
    22.200902: p  624: a 0xee: wr reg 0x02 (A) : 0x00 
EDID_FIFO_DATA
    22.201569: p  625: a 0xee: wr reg 0x03 (A) : 0x00 0xff 0xff 0xff 0xff 0xff 0xff 0x00 0x4d 0x29 0x34 0x93 0x01 0x00 0x00 0x00 0x00 0x14 0x01 0x03 0x80 0x33 0x1d 0x78 0x0a 0x9f 0x75 0xa5 0x55 0x4d 0x99 0x26 0x0e 0x50 0x54 0xbf 0xef 0x80 0x71 0x4f 0x81 0x00 0x81 0x80 0x95 0x00 0x95 0x0f 0xb3 0x00 0x01 0x01 0x01 0x01 0x02 0x3a 0x80 0x18 0x71 0x38 0x2d 0x40 0x58 0x2c 0x45 0x00 0xfe 0x1f 0x11 0x00 0x00 0x1e 0x01 0x1d 0x80 0x18 0x71 0x1c 0x16 0x20 0x58 0x2c 0x25 0x00 0xfe 0x1f 0x11 0x00 0x00 0x9e 0x00 0x00 0x00 0xfc 0x00 0x53 0x49 0x49 0x20 0x52 0x45 0x50 0x45 0x41 0x54 0x45 0x52 0x0a 0x00 0x00 0x00 0xfd 0x00 0x32 0x4b 0x10 0x53 0x11 0x00 0x0a 0x20 0x20 0x20 0x20 0x20 0x20 0x01 0x29 
EN_EDID
    22.215529: p  626: a 0xee: wr reg 0x01 (A) : 0x0f 
EN_EDID
    22.216496: p  627: a 0xee: wr reg 0x01 (A) : 0x00 
HDP_HW_CTRL
    22.217153: p  628: a 0xee: wr reg 0x13 (A) : 0xff 
EDID_FIFO_SEL
    22.218073: p  629: a 0xee: wr reg 0x04 (A) : 0x01 
EDID_FIFO_ADDR
    22.218720: p  630: a 0xee: wr reg 0x02 (A) : 0x80 
EDID_FIFO_DATA
    22.219393: p  631: a 0xee: wr reg 0x03 (A) : 0x02 0x03 0x29 0x71 0x4f 0x90 0x9f 0x05 0x04 0x03 0x01 0x02 0x06 0x07 0x11 0x12 0x13 0x14 0x15 0x16 0x23 0x09 0x07 0x07 0x83 0x01 0x00 0x00 0x6c 0x03 0x0c 0x00 0x11 0x00 0xb8 0x2d 0xc0 0x16 0xf3 0x0e 0x81 0x01 0x1d 0x00 0x72 0x51 0xd0 0x1e 0x20 0x6e 0x28 0x55 0x00 0xfe 0x1f 0x11 0x00 0x00 0x1e 0x8c 0x0a 0xd0 0x8a 0x20 0xe0 0x2d 0x10 0x10 0x3e 0x96 0x00 0xfe 0x1f 0x11 0x00 0x00 0x18 0xd6 0x09 0x80 0xa0 0x20 0xe0 0x2d 0x10 0x10 0x60 0xa2 0x00 0x7e 0x1f 0x11 0x00 0x00 0x18 0x8c 0x0a 0xd0 0x8a 0x20 0xe0 0x2d 0x10 0x10 0x3e 0x96 0x00 0x7e 0x1f 0x11 0x00 0x00 0x18 0x00 0x00 0x00 0x00 0x00 0x00 0x00 0x00 0x00 0x00 0x00 0x00 0x00 0x00 0x63 
EDID_FIFO_SEL
    22.233508: p  632: a 0xee: wr reg 0x04 (A) : 0x02 
EDID_FIFO_ADDR
    22.234156: p  633: a 0xee: wr reg 0x02 (A) : 0x80 
EDID_FIFO_DATA
    22.234829: p  640: a 0xee: wr reg 0x03 (A) : 0x02 0x03 0x29 0x71 0x4f 0x90 0x9f 0x05 0x04 0x03 0x01 0x02 0x06 0x07 0x11 0x12 0x13 0x14 0x15 0x16 0x23 0x09 0x07 0x07 0x83 0x01 0x00 0x00 0x6c 0x03 0x0c 0x00 0x12 0x00 0xb8 0x2d 0xc0 0x16 0xf3 0x0e 0x81 0x01 0x1d 0x00 0x72 0x51 0xd0 0x1e 0x20 0x6e 0x28 0x55 0x00 0xfe 0x1f 0x11 0x00 0x00 0x1e 0x8c 0x0a 0xd0 0x8a 0x20 0xe0 0x2d 0x10 0x10 0x3e 0x96 0x00 0xfe 0x1f 0x11 0x00 0x00 0x18 0xd6 0x09 0x80 0xa0 0x20 0xe0 0x2d 0x10 0x10 0x60 0xa2 0x00 0x7e 0x1f 0x11 0x00 0x00 0x18 0x8c 0x0a 0xd0 0x8a 0x20 0xe0 0x2d 0x10 0x10 0x3e 0x96 0x00 0x7e 0x1f 0x11 0x00 0x00 0x18 0x00 0x00 0x00 0x00 0x00 0x00 0x00 0x00 0x00 0x00 0x00 0x00 0x00 0x00 0x62 
EDID_FIFO_SEL
    22.248929: p  641: a 0xee: wr reg 0x04 (A) : 0x04 
EDID_FIFO_ADDR
    22.249578: p  642: a 0xee: wr reg 0x02 (A) : 0x80 
EDID_FIFO_DATA
    22.250249: p  643: a 0xee: wr reg 0x03 (A) : 0x02 0x03 0x29 0x71 0x4f 0x90 0x9f 0x05 0x04 0x03 0x01 0x02 0x06 0x07 0x11 0x12 0x13 0x14 0x15 0x16 0x23 0x09 0x07 0x07 0x83 0x01 0x00 0x00 0x6c 0x03 0x0c 0x00 0x13 0x00 0xb8 0x2d 0xc0 0x16 0xf3 0x0e 0x81 0x01 0x1d 0x00 0x72 0x51 0xd0 0x1e 0x20 0x6e 0x28 0x55 0x00 0xfe 0x1f 0x11 0x00 0x00 0x1e 0x8c 0x0a 0xd0 0x8a 0x20 0xe0 0x2d 0x10 0x10 0x3e 0x96 0x00 0xfe 0x1f 0x11 0x00 0x00 0x18 0xd6 0x09 0x80 0xa0 0x20 0xe0 0x2d 0x10 0x10 0x60 0xa2 0x00 0x7e 0x1f 0x11 0x00 0x00 0x18 0x8c 0x0a 0xd0 0x8a 0x20 0xe0 0x2d 0x10 0x10 0x3e 0x96 0x00 0x7e 0x1f 0x11 0x00 0x00 0x18 0x00 0x00 0x00 0x00 0x00 0x00 0x00 0x00 0x00 0x00 0x00 0x00 0x00 0x00 0x61 
EDID_FIFO_SEL
    22.264236: p  644: a 0xee: wr reg 0x04 (A) : 0x08 
EDID_FIFO_ADDR
    22.265020: p  645: a 0xee: wr reg 0x02 (A) : 0x80 
EDID_FIFO_DATA
    22.265689: p  646: a 0xee: wr reg 0x03 (A) : 0x02 0x03 0x29 0x71 0x4f 0x90 0x9f 0x05 0x04 0x03 0x01 0x02 0x06 0x07 0x11 0x12 0x13 0x14 0x15 0x16 0x23 0x09 0x07 0x07 0x83 0x01 0x00 0x00 0x6c 0x03 0x0c 0x00 0x14 0x00 0xb8 0x2d 0xc0 0x16 0xf3 0x0e 0x81 0x01 0x1d 0x00 0x72 0x51 0xd0 0x1e 0x20 0x6e 0x28 0x55 0x00 0xfe 0x1f 0x11 0x00 0x00 0x1e 0x8c 0x0a 0xd0 0x8a 0x20 0xe0 0x2d 0x10 0x10 0x3e 0x96 0x00 0xfe 0x1f 0x11 0x00 0x00 0x18 0xd6 0x09 0x80 0xa0 0x20 0xe0 0x2d 0x10 0x10 0x60 0xa2 0x00 0x7e 0x1f 0x11 0x00 0x00 0x18 0x8c 0x0a 0xd0 0x8a 0x20 0xe0 0x2d 0x10 0x10 0x3e 0x96 0x00 0x7e 0x1f 0x11 0x00 0x00 0x18 0x00 0x00 0x00 0x00 0x00 0x00 0x00 0x00 0x00 0x00 0x00 0x00 0x00 0x00 0x60 
EN_EDID
    22.279629: p  647: a 0xee: wr reg 0x01 (A) : 0x0f 
Video Mode 2
    22.280502: p  648: a 0x60: wr reg 0x49 (A) : 
    22.280722: p  649: a 0x61: rd              : 0x00 
Video Mode 2
    22.281280: p  656: a 0x60: wr reg 0x49 (A) : 0x80 
<Unknown>
    22.281934: p  657: a 0x60: wr reg 0x2e (A) : 0xc0 
Interrupt Status 1
    22.282585: p  658: a 0x60: wr reg 0x71 (A) : 0x03 
Interrupt Unmask 1
    22.283230: p  659: a 0x60: wr reg 0x75 (A) : 0x03 
<Unknown>
    22.284895: p  660: a 0x60: wr reg 0x2e (A) : 0xc0 
Port Switch
    22.285553: p  661: a 0x60: wr reg 0x09 (A) : 0x10 
Port Switch 2
    22.286199: p  662: a 0x60: wr reg 0x0a (A) : 0x08 
TMDS Termination Control
    22.286843: p  663: a 0x60: wr reg 0x82 (A) : 0xfc 
Hot plug Control
    22.287496: p  664: a 0x60: wr reg 0x10 (A) : 0x55 
System Status
    22.301060: p  665: a 0x60: wr reg 0x06 (A) : 
    22.301278: p  768: a 0x61: rd              : 0x20 
RX_AUDP_STAT
    22.301924: p  769: a 0x68: wr reg 0x34 (A) : 
    22.302142: p  770: a 0x69: rd              : 0x00 
Deep Color Status
    22.310323: p  771: a 0x60: wr reg 0x61 (A) : 
    22.310541: p  772: a 0x61: rd              : 0x00 
RX_AUDP_STAT
    22.333556: p  773: a 0x68: wr reg 0x34 (A) : 
    22.333774: p  774: a 0x69: rd              : 0x00 
RX_AUDP_STAT
    22.362147: p  775: a 0x68: wr reg 0x34 (A) : 
    22.362434: p  776: a 0x69: rd              : 0x00 
Deep Color Status
    22.373544: p  777: a 0x60: wr reg 0x61 (A) : 
    22.373762: p  784: a 0x61: rd              : 0x00 
RX_AUDP_STAT
    22.389022: p  785: a 0x68: wr reg 0x34 (A) : 
    22.389240: p  786: a 0x69: rd              : 0x00 
RX_AUDP_STAT
    22.413065: p  787: a 0x68: wr reg 0x34 (A) : 
    22.413283: p  788: a 0x69: rd              : 0x00 
Deep Color Status
    22.426527: p  789: a 0x60: wr reg 0x61 (A) : 
    22.426745: p  790: a 0x61: rd              : 0x00 
RX_AUDP_STAT
    22.437023: p  791: a 0x68: wr reg 0x34 (A) : 
    22.437241: p  792: a 0x69: rd              : 0x00 
RX_AUDP_STAT
    22.470998: p  793: a 0x68: wr reg 0x34 (A) : 
    22.471286: p  800: a 0x69: rd              : 0x00 
Deep Color Status
    22.481009: p  801: a 0x60: wr reg 0x61 (A) : 
    22.481227: p  802: a 0x61: rd              : 0x00 
System Status
    22.509048: p  803: a 0x60: wr reg 0x06 (A) : 
    22.509266: p  804: a 0x61: rd              : 0x20 
RX_AUDP_STAT
    22.511374: p  805: a 0x68: wr reg 0x34 (A) : 
    22.511592: p  806: a 0x69: rd              : 0x00 
RX_AUDP_STAT
    22.541024: p  807: a 0x68: wr reg 0x34 (A) : 
    22.541242: p  808: a 0x69: rd              : 0x00 
Deep Color Status
    22.550461: p  809: a 0x60: wr reg 0x61 (A) : 
    22.550679: p  816: a 0x61: rd              : 0x00 
RX_AUDP_STAT
    22.578090: p  817: a 0x68: wr reg 0x34 (A) : 
    22.578377: p  818: a 0x69: rd              : 0x00 
Deep Color Status
    22.601004: p  819: a 0x60: wr reg 0x61 (A) : 
    22.601222: p  820: a 0x61: rd              : 0x00 
RX_AUDP_STAT
    22.602358: p  821: a 0x68: wr reg 0x34 (A) : 
    22.602576: p  822: a 0x69: rd              : 0x00 
RX_AUDP_STAT
    22.633989: p  823: a 0x68: wr reg 0x34 (A) : 
    22.634278: p  824: a 0x69: rd              : 0x00 
Deep Color Status
    22.657001: p  825: a 0x60: wr reg 0x61 (A) : 
    22.657219: p  832: a 0x61: rd              : 0x00 
RX_AUDP_STAT
    22.659177: p  833: a 0x68: wr reg 0x34 (A) : 
    22.659395: p  834: a 0x69: rd              : 0x00 
RX_AUDP_STAT
    22.685011: p  835: a 0x68: wr reg 0x34 (A) : 
    22.685229: p  836: a 0x69: rd              : 0x00 
System Status
    22.713036: p  837: a 0x60: wr reg 0x06 (A) : 
    22.713254: p  838: a 0x61: rd              : 0x20 
Deep Color Status
    22.713887: p  839: a 0x60: wr reg 0x61 (A) : 
    22.714105: p  840: a 0x61: rd              : 0x00 
RX_AUDP_STAT
    22.716061: p  841: a 0x68: wr reg 0x34 (A) : 
    22.716439: p  848: a 0x69: rd              : 0x00 
RX_AUDP_STAT
    22.741010: p  849: a 0x68: wr reg 0x34 (A) : 
    22.741228: p  850: a 0x69: rd              : 0x00 
RX_AUDP_STAT
    22.765051: p  851: a 0x68: wr reg 0x34 (A) : 
    22.765269: p  852: a 0x69: rd              : 0x00 
Deep Color Status
    22.774441: p  853: a 0x60: wr reg 0x61 (A) : 
    22.774659: p  854: a 0x61: rd              : 0x00 
RX_AUDP_STAT
    22.785003: p  855: a 0x68: wr reg 0x34 (A) : 
    22.785221: p  856: a 0x69: rd              : 0x00 
RX_AUDP_STAT
    22.817068: p  857: a 0x68: wr reg 0x34 (A) : 
    22.817285: p  864: a 0x69: rd              : 0x00 
Deep Color Status
    22.824994: p  865: a 0x60: wr reg 0x61 (A) : 
    22.825212: p  866: a 0x61: rd              : 0x00 
RX_AUDP_STAT
    22.853171: p  867: a 0x68: wr reg 0x34 (A) : 
    22.853453: p  868: a 0x69: rd              : 0x00 
RX_AUDP_STAT
    22.873046: p  869: a 0x68: wr reg 0x34 (A) : 
    22.873264: p  870: a 0x69: rd              : 0x00 
RX_AUDP_MUTE
    22.883011: p  871: a 0x68: wr reg 0x37 (A) : 
    22.883229: p  872: a 0x69: rd              : 0x73 
<Unknown>
    22.883879: p  873: a 0x60: wr reg 0xb8 (A) : 
    22.884097: p  880: a 0x61: rd              : 0x01 
<Unknown>
    22.884857: p  881: a 0x60: wr reg 0xb7 (A) : 
    22.885075: p  882: a 0x61: rd              : 0x07 
Interrupt Info Frame Control
    22.886985: p  883: a 0x60: wr reg 0x7a (A) : 
    22.887203: p  884: a 0x61: rd              : 0x6f 
Port Switch
    22.887766: p  885: a 0x60: wr reg 0x09 (A) : 0x00 
TMDS Termination Control
    22.888653: p  886: a 0x60: wr reg 0x82 (A) : 0xff 
<Unknown>
    22.890120: p  887: a 0x60: wr reg 0x2e (A) : 0xc0 
RX_AUDP_STAT
    22.890767: p  888: a 0x68: wr reg 0x34 (A) : 
    22.890984: p  889: a 0x69: rd              : 0x00 
<Unknown>
    22.891600: p  896: a 0x60: wr reg 0xb8 (A) : 
    22.891818: p  897: a 0x61: rd              : 0x01 
<Unknown>
    22.892604: p  898: a 0x60: wr reg 0xb7 (A) : 
    22.892822: p  899: a 0x61: rd              : 0x07 
Interrupt Info Frame Control
    22.894740: p  900: a 0x60: wr reg 0x7a (A) : 
    22.894958: p  901: a 0x61: rd              : 0x6f 
Interrupt Info Frame Control
    22.895522: p  902: a 0x60: wr reg 0x7a (A) : 
    22.895740: p  903: a 0x61: rd              : 0x6f 
RX_AUDP_MUTE
    22.896487: p  904: a 0x68: wr reg 0x37 (A) : 
    22.896707: p  905: a 0x69: rd              : 0x73 
SW Reset 2
    22.897267: p  912: a 0x60: wr reg 0x07 (A) : 
    22.897485: p  913: a 0x61: rd              : 0x08 
System Ctrl 1
    22.898027: p  914: a 0x60: wr reg 0x08 (A) : 
    22.898245: p  915: a 0x61: rd              : 0x04 
System Ctrl 1
    22.898791: p  916: a 0x60: wr reg 0x08 (A) : 0x04 
Deep Color Status
    22.904489: p  917: a 0x60: wr reg 0x61 (A) : 
    22.904709: p  918: a 0x61: rd              : 0x00 
System Status
    22.926632: p  919: a 0x60: wr reg 0x06 (A) : 
    22.926849: p  920: a 0x61: rd              : 0x20 
RX_AUDP_STAT
    22.927491: p  921: a 0x68: wr reg 0x34 (A) : 
    22.927709: p 1024: a 0x69: rd              : 0x00 
<Unknown>
    22.948985: p 1025: a 0x68: wr reg 0xbf (A) : 0x05 
Interrupt Info Frame Control
    22.949627: p 1026: a 0x60: wr reg 0x7a (A) : 
    22.949845: p 1027: a 0x61: rd              : 0x6f 
Interrupt Status 3
    22.950391: p 1028: a 0x60: wr reg 0x73 (A) : 0x08 
Interrupt Status 8
    22.951038: p 1029: a 0x60: wr reg 0x91 (A) : 0x08 
INFM_CLR
    22.951678: p 1030: a 0x60: wr reg 0x94 (A) : 
    22.951896: p 1031: a 0x61: rd              : 0x40 
<Unknown>
    22.954028: p 1032: a 0x68: wr reg 0x7f (A) : 0x81 
Interrupt Status 3
    22.954671: p 1033: a 0x60: wr reg 0x73 (A) : 0x02 
RX_AUDP_STAT
    22.963659: p 1040: a 0x68: wr reg 0x34 (A) : 
    22.963877: p 1041: a 0x69: rd              : 0x00 
Deep Color Status
    22.977207: p 1042: a 0x60: wr reg 0x61 (A) : 
    22.977494: p 1043: a 0x61: rd              : 0x00 
RX_AUDP_STAT
    22.978586: p 1044: a 0x68: wr reg 0x34 (A) : 
    22.978804: p 1045: a 0x69: rd              : 0x00 
RX_AUDP_STAT
    23.006346: p 1046: a 0x68: wr reg 0x34 (A) : 
    23.006564: p 1047: a 0x69: rd              : 0x00 
RX_AUDP_STAT
    23.029035: p 1048: a 0x68: wr reg 0x34 (A) : 
    23.029253: p 1049: a 0x69: rd              : 0x00 
Deep Color Status
    23.042486: p 1056: a 0x60: wr reg 0x61 (A) : 
    23.042704: p 1057: a 0x61: rd              : 0x00 
Port Switch
    23.043264: p 1058: a 0x60: wr reg 0x09 (A) : 0x80 
Port Switch 2
    23.043903: p 1059: a 0x60: wr reg 0x0a (A) : 0x0b 
TMDS Termination Control
    23.044781: p 1060: a 0x60: wr reg 0x82 (A) : 0x3f 
RX_AUDP_STAT
    23.052990: p 1061: a 0x68: wr reg 0x34 (A) : 
    23.053208: p 1062: a 0x69: rd              : 0x00 
RX_AUDP_STAT
    23.079241: p 1063: a 0x68: wr reg 0x34 (A) : 
    23.079459: p 1064: a 0x69: rd              : 0x00 
Deep Color Status
    23.093000: p 1065: a 0x60: wr reg 0x61 (A) : 
    23.093218: p 1072: a 0x61: rd              : 0x00 
RX_AUDP_STAT
    23.104989: p 1073: a 0x68: wr reg 0x34 (A) : 
    23.105207: p 1074: a 0x69: rd              : 0x00 
System Status
    23.133014: p 1075: a 0x60: wr reg 0x06 (A) : 
    23.133232: p 1076: a 0x61: rd              : 0x3b 
System Ctrl 1
    23.133773: p 1077: a 0x60: wr reg 0x08 (A) : 
    23.133991: p 1078: a 0x61: rd              : 0x04 
System Ctrl 1
    23.134537: p 1079: a 0x60: wr reg 0x08 (A) : 0x05 
SW Reset 2
    23.135184: p 1080: a 0x60: wr reg 0x07 (A) : 
    23.135402: p 1081: a 0x61: rd              : 0x08 
SW Reset 2
    23.135945: p 1088: a 0x60: wr reg 0x07 (A) : 0x88 
SW Reset 2
    23.136802: p 1089: a 0x60: wr reg 0x07 (A) : 
    23.137020: p 1090: a 0x61: rd              : 0x88 
SW Reset 2
    23.137568: p 1091: a 0x60: wr reg 0x07 (A) : 0x08 
RX_AUDP_MUTE
    23.138215: p 1092: a 0x68: wr reg 0x37 (A) : 
    23.138433: p 1093: a 0x69: rd              : 0x73 
Interrupt Status 2
    23.139022: p 1094: a 0x60: wr reg 0x72 (A) : 0x08 
Interrupt Status 5
    23.139665: p 1095: a 0x60: wr reg 0x7b (A) : 0x18 
<Unknown>
    23.141330: p 1096: a 0x60: wr reg 0x2e (A) : 0xc0 
<Unknown>
    23.142089: p 1097: a 0x60: wr reg 0xb8 (A) : 
    23.142307: p 1104: a 0x61: rd              : 0x01 
<Unknown>
    23.142857: p 1105: a 0x60: wr reg 0xb7 (A) : 
    23.143075: p 1106: a 0x61: rd              : 0x07 
Interrupt Info Frame Control
    23.145186: p 1107: a 0x60: wr reg 0x7a (A) : 
    23.145404: p 1108: a 0x61: rd              : 0x6f 
SW Reset 2
    23.145970: p 1109: a 0x60: wr reg 0x07 (A) : 
    23.146188: p 1110: a 0x61: rd              : 0x08 
SW Reset 2
    23.146733: p 1111: a 0x60: wr reg 0x07 (A) : 0x00 
Interrupt Status
    23.147462: p 1112: a 0x60: wr reg 0x70 (A) : 
    23.147680: p 1113: a 0x61: rd              : 0x07 
Interrupt Status 1
    23.148231: p 1120: a 0x60: wr reg 0x71 (A) : 
    23.148568: p 1121: a 0x61: rd              : 0x38 0x51 0x00 0x00 
Interrupt Status 5
    23.149432: p 1122: a 0x60: wr reg 0x7b (A) : 
    23.149650: p 1123: a 0x61: rd              : 0x95 0x01 
Interrupt Status 7
    23.150302: p 1124: a 0x60: wr reg 0x90 (A) : 
    23.150520: p 1125: a 0x61: rd              : 0x6b 0x00 
Interrupt Status 1
    23.151174: p 1126: a 0x60: wr reg 0x71 (A) : 0x00 0x10 0x00 0x00 
Interrupt Status 5
    23.152126: p 1127: a 0x60: wr reg 0x7b (A) : 0x11 0x01 
Interrupt Status 7
    23.153071: p 1128: a 0x60: wr reg 0x90 (A) : 0x00 0x00 
* RX_CH_STATUS1
    23.153837: p 1129: a 0x68: wr reg 0x2a (A) : 
    23.154055: p 1136: a 0x69: rd              : 0x00 0x00 0x00 
* RX_CH_STATUS4
    23.154809: p 1137: a 0x68: wr reg 0x30 (A) : 
    23.155026: p 1138: a 0x69: rd              : 0x01 0x0b 
<Unknown>
    23.155675: p 1139: a 0x68: wr reg 0x17 (A) : 
    23.155893: p 1140: a 0x69: rd              : 0x11 
RX_AUDP_STAT
    23.156689: p 1141: a 0x68: wr reg 0x34 (A) : 
    23.156907: p 1142: a 0x69: rd              : 0x00 
Interrupt Status
    23.191999: p 1143: a 0x60: wr reg 0x70 (A) : 
    23.192217: p 1144: a 0x61: rd              : 0x05 
Interrupt Status 1
    23.192906: p 1145: a 0x60: wr reg 0x71 (A) : 
    23.193124: p 1152: a 0x61: rd              : 0x38 0x41 0x00 0x00 
Interrupt Status 5
    23.193981: p 1153: a 0x60: wr reg 0x7b (A) : 
    23.194199: p 1154: a 0x61: rd              : 0x94 0x00 
Interrupt Status 7
    23.194848: p 1155: a 0x60: wr reg 0x90 (A) : 
    23.195065: p 1156: a 0x61: rd              : 0x6b 0x00 
Interrupt Status 1
    23.195716: p 1157: a 0x60: wr reg 0x71 (A) : 0x00 0x00 0x00 0x00 
Interrupt Status 5
    23.196886: p 1158: a 0x60: wr reg 0x7b (A) : 0x10 0x00 
Interrupt Status 7
    23.197627: p 1159: a 0x60: wr reg 0x90 (A) : 0x00 0x00 
RX_AUDP_STAT
    23.198417: p 1160: a 0x68: wr reg 0x34 (A) : 
    23.198635: p 1161: a 0x69: rd              : 0x00 
Interrupt Status
    23.204071: p 1168: a 0x60: wr reg 0x70 (A) : 
    23.204445: p 1169: a 0x61: rd              : 0x00 
<Unknown>
    23.388972: p 1170: a 0x64: wr reg 0x88 (A) : 
    23.389190: p 1171: a 0x65: rd              : 0x01 
Interrupt Status
    23.389816: p 1172: a 0x60: wr reg 0x70 (A) : 
    23.390033: p 1173: a 0x61: rd              : 0x00 
Deep Color Status
    23.390585: p 1174: a 0x60: wr reg 0x61 (A) : 
    23.390803: p 1175: a 0x61: rd              : 0x00 
System Status
    23.582030: p 1176: a 0x60: wr reg 0x06 (A) : 
    23.582248: p 1177: a 0x61: rd              : 0x3b 
Interrupt Status
    23.582928: p 1280: a 0x60: wr reg 0x70 (A) : 
    23.583146: p 1281: a 0x61: rd              : 0x00 
<Unknown>
    23.583709: p 1282: a 0x68: wr reg 0xbf (A) : 0x05 
Interrupt Info Frame Control
    23.584606: p 1283: a 0x60: wr reg 0x7a (A) : 
    23.584824: p 1284: a 0x61: rd              : 0x6f 
Interrupt Status 3
    23.585376: p 1285: a 0x60: wr reg 0x73 (A) : 0x08 
Interrupt Status 8
    23.586025: p 1286: a 0x60: wr reg 0x91 (A) : 0x08 
INFM_CLR
    23.586665: p 1287: a 0x60: wr reg 0x94 (A) : 
    23.586883: p 1288: a 0x61: rd              : 0x40 
<Unknown>
    23.588967: p 1289: a 0x68: wr reg 0x7f (A) : 0x81 
Interrupt Status 3
    23.589607: p 1296: a 0x60: wr reg 0x73 (A) : 0x02 
RX_AUDP_STAT
    23.599984: p 1297: a 0x68: wr reg 0x34 (A) : 
    23.600396: p 1298: a 0x69: rd              : 0x00 
Interrupt Status
    23.617931: p 1299: a 0x60: wr reg 0x70 (A) : 
    23.618149: p 1300: a 0x61: rd              : 0x00 
Deep Color Status
    23.620067: p 1301: a 0x60: wr reg 0x61 (A) : 
    23.620399: p 1302: a 0x61: rd              : 0x00 
RX_AUDP_STAT
    23.621485: p 1303: a 0x68: wr reg 0x34 (A) : 
    23.621702: p 1304: a 0x69: rd              : 0x00 
System Status
    23.636988: p 1305: a 0x60: wr reg 0x06 (A) : 
    23.637206: p 1312: a 0x61: rd              : 0x3b 
System Ctrl 1
    23.637763: p 1313: a 0x60: wr reg 0x08 (A) : 
    23.637981: p 1314: a 0x61: rd              : 0x05 
<Unknown>
    23.638525: p 1315: a 0x60: wr reg 0x55 (A) : 
    23.638743: p 1316: a 0x61: rd              : 0x03 
Video Input H Resolution (l)
    23.639288: p 1317: a 0x60: wr reg 0x3a (A) : 
    23.639506: p 1318: a 0x61: rd              : 0x98 0x08 0x65 0x04 
XCLK to PCLK Update
    23.640615: p 1319: a 0x60: wr reg 0x6a (A) : 0x01 
XCLK to PCLK Update
    23.641258: p 1320: a 0x60: wr reg 0x6a (A) : 0x00 
Pixel Clock Timing (l)
    23.641898: p 1321: a 0x60: wr reg 0x6e (A) : 
    23.642117: p 1328: a 0x61: rd              : 0x74 0x01 
XCLK to PCLK Update
    23.642769: p 1329: a 0x60: wr reg 0x6a (A) : 0x01 
XCLK to PCLK Update
    23.643412: p 1330: a 0x60: wr reg 0x6a (A) : 0x00 
Pixel Clock Timing (l)
    23.644055: p 1331: a 0x60: wr reg 0x6e (A) : 
    23.644392: p 1332: a 0x61: rd              : 0x73 0x01 
XCLK to PCLK Update
    23.645049: p 1333: a 0x60: wr reg 0x6a (A) : 0x01 
XCLK to PCLK Update
    23.645695: p 1334: a 0x60: wr reg 0x6a (A) : 0x00 
Pixel Clock Timing (l)
    23.646333: p 1335: a 0x60: wr reg 0x6e (A) : 
    23.646551: p 1336: a 0x61: rd              : 0x74 0x01 
XCLK to PCLK Update
    23.647202: p 1337: a 0x60: wr reg 0x6a (A) : 0x01 
XCLK to PCLK Update
    23.647845: p 1344: a 0x60: wr reg 0x6a (A) : 0x00 
Pixel Clock Timing (l)
    23.648725: p 1345: a 0x60: wr reg 0x6e (A) : 
    23.648943: p 1346: a 0x61: rd              : 0x73 0x01 
XCLK to PCLK Update
    23.649592: p 1347: a 0x60: wr reg 0x6a (A) : 0x01 
XCLK to PCLK Update
    23.650236: p 1348: a 0x60: wr reg 0x6a (A) : 0x00 
Pixel Clock Timing (l)
    23.650877: p 1349: a 0x60: wr reg 0x6e (A) : 
    23.651096: p 1350: a 0x61: rd              : 0x74 0x01 
XCLK to PCLK Update
    23.651748: p 1351: a 0x60: wr reg 0x6a (A) : 0x01 
XCLK to PCLK Update
    23.652651: p 1352: a 0x60: wr reg 0x6a (A) : 0x00 
Pixel Clock Timing (l)
    23.653292: p 1353: a 0x60: wr reg 0x6e (A) : 
    23.653509: p 1360: a 0x61: rd              : 0x73 0x01 
XCLK to PCLK Update
    23.654160: p 1361: a 0x60: wr reg 0x6a (A) : 0x01 
XCLK to PCLK Update
    23.654801: p 1362: a 0x60: wr reg 0x6a (A) : 0x00 
Pixel Clock Timing (l)
    23.655444: p 1363: a 0x60: wr reg 0x6e (A) : 
    23.655662: p 1364: a 0x61: rd              : 0x74 0x01 
XCLK to PCLK Update
    23.656433: p 1365: a 0x60: wr reg 0x6a (A) : 0x01 
XCLK to PCLK Update
    23.657117: p 1366: a 0x60: wr reg 0x6a (A) : 0x00 
Pixel Clock Timing (l)
    23.657758: p 1367: a 0x60: wr reg 0x6e (A) : 
    23.657976: p 1368: a 0x61: rd              : 0x73 0x01 
XCLK to PCLK Update
    23.658627: p 1369: a 0x60: wr reg 0x6a (A) : 0x01 
Pixel Clock Timing (l)
    23.659365: p 1376: a 0x60: wr reg 0x6e (A) : 
    23.659584: p 1377: a 0x61: rd              : 0x74 0x01 
Video Channel PCLK Count Base
    23.660430: p 1378: a 0x60: wr reg 0x69 (A) : 0x80 
Pixel Clock Timing (l)
    23.661081: p 1379: a 0x60: wr reg 0x6e (A) : 
    23.661299: p 1380: a 0x61: rd              : 0xba 0x00 
Pixel Clock Timing (l)
    23.661949: p 1381: a 0x60: wr reg 0x6e (A) : 
    23.662167: p 1382: a 0x61: rd              : 0xbb 0x00 
Video Channel PCLK Count Base
    23.662818: p 1383: a 0x60: wr reg 0x69 (A) : 0xff 
Interrupt Status
    23.663547: p 1384: a 0x60: wr reg 0x70 (A) : 
    23.663765: p 1385: a 0x61: rd              : 0x00 
Interrupt Status
    23.689006: p 1392: a 0x60: wr reg 0x70 (A) : 
    23.689224: p 1393: a 0x61: rd              : 0x00 
Deep Color Status
    23.689779: p 1394: a 0x60: wr reg 0x61 (A) : 
    23.689997: p 1395: a 0x61: rd              : 0x00 
<Unknown>
    23.697264: p 1396: a 0x60: wr reg 0x4b (A) : 0x10 0x10 0x10 
Video Mode 2
    23.698149: p 1397: a 0x60: wr reg 0x49 (A) : 
    23.698367: p 1398: a 0x61: rd              : 0x80 
Video Control
    23.698925: p 1399: a 0x60: wr reg 0x48 (A) : 0x05 0x80 0x20 
System Ctrl 1
    23.699780: p 1400: a 0x60: wr reg 0x08 (A) : 
    23.699997: p 1401: a 0x61: rd              : 0x05 
System Ctrl 1
    23.700764: p 1408: a 0x60: wr reg 0x08 (A) : 0x05 
RX_AUDP_MUTE
    23.701446: p 1409: a 0x68: wr reg 0x37 (A) : 
    23.701664: p 1410: a 0x69: rd              : 0x73 
RX_AUDP_MUTE
    23.702218: p 1411: a 0x68: wr reg 0x37 (A) : 0x72 
Pixel Clock Timing (l)
    23.702890: p 1412: a 0x60: wr reg 0x6e (A) : 
    23.703108: p 1413: a 0x61: rd              : 0x74 0x01 
Video Channel PCLK Count Base
    23.703764: p 1414: a 0x60: wr reg 0x69 (A) : 0x80 
Pixel Clock Timing (l)
    23.704662: p 1415: a 0x60: wr reg 0x6e (A) : 
    23.704880: p 1416: a 0x61: rd              : 0xbb 0x00 
Pixel Clock Timing (l)
    23.705533: p 1417: a 0x60: wr reg 0x6e (A) : 
    23.705751: p 1424: a 0x61: rd              : 0xbb 0x00 
Video Channel PCLK Count Base
    23.706405: p 1425: a 0x60: wr reg 0x69 (A) : 0xff 
RX_AUDP_STAT
    23.707150: p 1426: a 0x68: wr reg 0x34 (A) : 
    23.707368: p 1427: a 0x69: rd              : 0x00 
Interrupt Status
    23.709454: p 1428: a 0x60: wr reg 0x70 (A) : 
    23.709671: p 1429: a 0x61: rd              : 0x00 
RX_AUDP_STAT
    23.740982: p 1430: a 0x68: wr reg 0x34 (A) : 
    23.741200: p 1431: a 0x69: rd              : 0x00 
Pixel Clock Timing (l)
    23.741752: p 1432: a 0x60: wr reg 0x6e (A) : 
    23.741969: p 1433: a 0x61: rd              : 0x73 0x01 
Video Channel PCLK Count Base
    23.742622: p 1536: a 0x60: wr reg 0x69 (A) : 0x80 
Pixel Clock Timing (l)
    23.743269: p 1537: a 0x60: wr reg 0x6e (A) : 
    23.743487: p 1538: a 0x61: rd              : 0xba 0x00 
Pixel Clock Timing (l)
    23.744138: p 1539: a 0x60: wr reg 0x6e (A) : 
    23.744506: p 1540: a 0x61: rd              : 0xbb 0x00 
Video Channel PCLK Count Base
    23.745165: p 1541: a 0x60: wr reg 0x69 (A) : 0xff 
Interrupt Status
    23.745891: p 1542: a 0x60: wr reg 0x70 (A) : 
    23.746109: p 1543: a 0x61: rd              : 0x00 
Deep Color Status
    23.746663: p 1544: a 0x60: wr reg 0x61 (A) : 
    23.746881: p 1545: a 0x61: rd              : 0x00 
Interrupt Status
    23.753591: p 1552: a 0x60: wr reg 0x70 (A) : 
    23.753874: p 1553: a 0x61: rd              : 0x00 
RX_AUDP_STAT
    23.754452: p 1554: a 0x68: wr reg 0x34 (A) : 
    23.754670: p 1555: a 0x69: rd              : 0x00 
RX_AUDP_STAT
    23.761004: p 1556: a 0x68: wr reg 0x34 (A) : 
    23.761222: p 1557: a 0x69: rd              : 0x00 
Pixel Clock Timing (l)
    23.761771: p 1558: a 0x60: wr reg 0x6e (A) : 
    23.761989: p 1559: a 0x61: rd              : 0x73 0x01 
Video Channel PCLK Count Base
    23.762642: p 1560: a 0x60: wr reg 0x69 (A) : 0x80 
Pixel Clock Timing (l)
    23.763287: p 1561: a 0x60: wr reg 0x6e (A) : 
    23.763505: p 1568: a 0x61: rd              : 0xbb 0x00 
Pixel Clock Timing (l)
    23.764153: p 1569: a 0x60: wr reg 0x6e (A) : 
    23.764505: p 1570: a 0x61: rd              : 0xba 0x00 
Video Channel PCLK Count Base
    23.765165: p 1571: a 0x60: wr reg 0x69 (A) : 0xff 
Interrupt Status
    23.772941: p 1572: a 0x60: wr reg 0x70 (A) : 
    23.773159: p 1573: a 0x61: rd              : 0x00 
RX_AUDP_STAT
    23.773726: p 1574: a 0x68: wr reg 0x34 (A) : 
    23.773944: p 1575: a 0x69: rd              : 0x00 
RX_AUDP_STAT
    23.784979: p 1576: a 0x68: wr reg 0x34 (A) : 
    23.785197: p 1577: a 0x69: rd              : 0x00 
Pixel Clock Timing (l)
    23.785747: p 1584: a 0x60: wr reg 0x6e (A) : 
    23.785965: p 1585: a 0x61: rd              : 0x73 0x01 
Video Channel PCLK Count Base
    23.786616: p 1586: a 0x60: wr reg 0x69 (A) : 0x80 
Pixel Clock Timing (l)
    23.787259: p 1587: a 0x60: wr reg 0x6e (A) : 
    23.787477: p 1588: a 0x61: rd              : 0xba 0x00 
Pixel Clock Timing (l)
    23.788128: p 1589: a 0x60: wr reg 0x6e (A) : 
    23.788501: p 1590: a 0x61: rd              : 0xbb 0x00 
Video Channel PCLK Count Base
    23.789156: p 1591: a 0x60: wr reg 0x69 (A) : 0xff 
Interrupt Status
    23.789883: p 1592: a 0x60: wr reg 0x70 (A) : 
    23.790101: p 1593: a 0x61: rd              : 0x00 
RX_AUDP_STAT
    23.800984: p 1600: a 0x68: wr reg 0x34 (A) : 
    23.801202: p 1601: a 0x69: rd              : 0x00 
Pixel Clock Timing (l)
    23.801752: p 1602: a 0x60: wr reg 0x6e (A) : 
    23.801970: p 1603: a 0x61: rd              : 0x73 0x01 
Video Channel PCLK Count Base
    23.802620: p 1604: a 0x60: wr reg 0x69 (A) : 0x80 
Pixel Clock Timing (l)
    23.803263: p 1605: a 0x60: wr reg 0x6e (A) : 
    23.803482: p 1606: a 0x61: rd              : 0xba 0x00 
Pixel Clock Timing (l)
    23.804130: p 1607: a 0x60: wr reg 0x6e (A) : 
    23.804504: p 1608: a 0x61: rd              : 0xbb 0x00 
Video Channel PCLK Count Base
    23.805160: p 1609: a 0x60: wr reg 0x69 (A) : 0xff 
Interrupt Status
    23.805888: p 1616: a 0x60: wr reg 0x70 (A) : 
    23.806106: p 1617: a 0x61: rd              : 0x00 
Deep Color Status
    23.806659: p 1618: a 0x60: wr reg 0x61 (A) : 
    23.806877: p 1619: a 0x61: rd              : 0x00 
Interrupt Status
    23.813699: p 1620: a 0x60: wr reg 0x70 (A) : 
    23.813917: p 1621: a 0x61: rd              : 0x00 
RX_AUDP_STAT
    23.814487: p 1622: a 0x68: wr reg 0x34 (A) : 
    23.814705: p 1623: a 0x69: rd              : 0x00 
RX_AUDP_STAT
    23.817138: p 1624: a 0x68: wr reg 0x34 (A) : 
    23.817356: p 1625: a 0x69: rd              : 0x00 
Pixel Clock Timing (l)
    23.817906: p 1632: a 0x60: wr reg 0x6e (A) : 
    23.818124: p 1633: a 0x61: rd              : 0x73 0x01 
Video Channel PCLK Count Base
    23.818776: p 1634: a 0x60: wr reg 0x69 (A) : 0x80 
Pixel Clock Timing (l)
    23.819422: p 1635: a 0x60: wr reg 0x6e (A) : 
    23.819639: p 1636: a 0x61: rd              : 0xbb 0x00 
Pixel Clock Timing (l)
    23.820486: p 1637: a 0x60: wr reg 0x6e (A) : 
    23.820706: p 1638: a 0x61: rd              : 0xbb 0x00 
Video Channel PCLK Count Base
    23.821361: p 1639: a 0x60: wr reg 0x69 (A) : 0xff 
RX_AUDP_STAT
    23.832979: p 1640: a 0x68: wr reg 0x34 (A) : 
    23.833197: p 1641: a 0x69: rd              : 0x00 
Pixel Clock Timing (l)
    23.833747: p 1648: a 0x60: wr reg 0x6e (A) : 
    23.833965: p 1649: a 0x61: rd              : 0x73 0x01 
Video Channel PCLK Count Base
    23.834616: p 1650: a 0x60: wr reg 0x69 (A) : 0x80 
Pixel Clock Timing (l)
    23.835258: p 1651: a 0x60: wr reg 0x6e (A) : 
    23.835476: p 1652: a 0x61: rd              : 0xbb 0x00 
Pixel Clock Timing (l)
    23.836126: p 1653: a 0x60: wr reg 0x6e (A) : 
    23.836500: p 1654: a 0x61: rd              : 0xbb 0x00 
Video Channel PCLK Count Base
    23.837157: p 1655: a 0x60: wr reg 0x69 (A) : 0xff 
Interrupt Status
    23.837884: p 1656: a 0x60: wr reg 0x70 (A) : 
    23.838102: p 1657: a 0x61: rd              : 0x00 
Interrupt Status
    23.844966: p 1664: a 0x60: wr reg 0x70 (A) : 
    23.845184: p 1665: a 0x61: rd              : 0x00 
RX_AUDP_STAT
    23.845754: p 1666: a 0x68: wr reg 0x34 (A) : 
    23.845971: p 1667: a 0x69: rd              : 0x00 
RX_AUDP_STAT
    23.852979: p 1668: a 0x68: wr reg 0x34 (A) : 
    23.853196: p 1669: a 0x69: rd              : 0x00 
Pixel Clock Timing (l)
    23.853748: p 1670: a 0x60: wr reg 0x6e (A) : 
    23.853966: p 1671: a 0x61: rd              : 0x73 0x01 
Video Channel PCLK Count Base
    23.854619: p 1672: a 0x60: wr reg 0x69 (A) : 0x80 
Pixel Clock Timing (l)
    23.855264: p 1673: a 0x60: wr reg 0x6e (A) : 
    23.855482: p 1680: a 0x61: rd              : 0xba 0x00 
Pixel Clock Timing (l)
    23.856134: p 1681: a 0x60: wr reg 0x6e (A) : 
    23.856499: p 1682: a 0x61: rd              : 0xba 0x00 
Video Channel PCLK Count Base
    23.857156: p 1683: a 0x60: wr reg 0x69 (A) : 0xff 
Interrupt Status
    23.862014: p 1684: a 0x60: wr reg 0x70 (A) : 
    23.862302: p 1685: a 0x61: rd              : 0x00 
Deep Color Status
    23.862868: p 1686: a 0x60: wr reg 0x61 (A) : 
    23.863086: p 1687: a 0x61: rd              : 0x00 
RX_AUDP_STAT
    23.872981: p 1688: a 0x68: wr reg 0x34 (A) : 
    23.873199: p 1689: a 0x69: rd              : 0x00 
Pixel Clock Timing (l)
    23.873749: p 1792: a 0x60: wr reg 0x6e (A) : 
    23.873967: p 1793: a 0x61: rd              : 0x73 0x01 
Video Channel PCLK Count Base
    23.874620: p 1794: a 0x60: wr reg 0x69 (A) : 0x80 
Pixel Clock Timing (l)
    23.875264: p 1795: a 0x60: wr reg 0x6e (A) : 
    23.875482: p 1796: a 0x61: rd              : 0xbb 0x00 
Pixel Clock Timing (l)
    23.876133: p 1797: a 0x60: wr reg 0x6e (A) : 
    23.876499: p 1798: a 0x61: rd              : 0xbb 0x00 
Video Channel PCLK Count Base
    23.877156: p 1799: a 0x60: wr reg 0x69 (A) : 0xff 
Interrupt Status
    23.877882: p 1800: a 0x60: wr reg 0x70 (A) : 
    23.878100: p 1801: a 0x61: rd              : 0x00 
RX_AUDP_STAT
    23.878670: p 1808: a 0x68: wr reg 0x34 (A) : 
    23.878888: p 1809: a 0x69: rd              : 0x00 
RX_AUDP_STAT
    23.892977: p 1810: a 0x68: wr reg 0x34 (A) : 
    23.893195: p 1811: a 0x69: rd              : 0x00 
Pixel Clock Timing (l)
    23.893745: p 1812: a 0x60: wr reg 0x6e (A) : 
    23.893960: p 1813: a 0x61: rd              : 0x73 0x01 
Video Channel PCLK Count Base
    23.894613: p 1814: a 0x60: wr reg 0x69 (A) : 0x80 
Pixel Clock Timing (l)
    23.895256: p 1815: a 0x60: wr reg 0x6e (A) : 
    23.895474: p 1816: a 0x61: rd              : 0xbb 0x00 
Pixel Clock Timing (l)
    23.896125: p 1817: a 0x60: wr reg 0x6e (A) : 
    23.896499: p 1824: a 0x61: rd              : 0xbb 0x00 
Video Channel PCLK Count Base
    23.897154: p 1825: a 0x60: wr reg 0x69 (A) : 0xff 
Interrupt Status
    23.897880: p 1826: a 0x60: wr reg 0x70 (A) : 
    23.898098: p 1827: a 0x61: rd              : 0x00 
RX_AUDP_STAT
    23.912979: p 1828: a 0x68: wr reg 0x34 (A) : 
    23.913197: p 1829: a 0x69: rd              : 0x00 
Pixel Clock Timing (l)
    23.913747: p 1830: a 0x60: wr reg 0x6e (A) : 
    23.913965: p 1831: a 0x61: rd              : 0x73 0x01 
Video Channel PCLK Count Base
    23.914618: p 1832: a 0x60: wr reg 0x69 (A) : 0x80 
Pixel Clock Timing (l)
    23.915263: p 1833: a 0x60: wr reg 0x6e (A) : 
    23.915481: p 1840: a 0x61: rd              : 0xbb 0x00 
Pixel Clock Timing (l)
    23.916131: p 1841: a 0x60: wr reg 0x6e (A) : 
    23.916495: p 1842: a 0x61: rd              : 0xba 0x00 
Video Channel PCLK Count Base
    23.917152: p 1843: a 0x60: wr reg 0x69 (A) : 0xff 
Interrupt Status
    23.917880: p 1844: a 0x60: wr reg 0x70 (A) : 
    23.918098: p 1845: a 0x61: rd              : 0x00 
Deep Color Status
    23.918650: p 1846: a 0x60: wr reg 0x61 (A) : 
    23.918868: p 1847: a 0x61: rd              : 0x00 
Interrupt Status
    23.925098: p 1848: a 0x60: wr reg 0x70 (A) : 
    23.925316: p 1849: a 0x61: rd              : 0x00 
RX_AUDP_STAT
    23.925881: p 1856: a 0x68: wr reg 0x34 (A) : 
    23.926099: p 1857: a 0x69: rd              : 0x00 
RX_AUDP_STAT
    23.932999: p 1858: a 0x68: wr reg 0x34 (A) : 
    23.933217: p 1859: a 0x69: rd              : 0x00 
Pixel Clock Timing (l)
    23.933765: p 1860: a 0x60: wr reg 0x6e (A) : 
    23.933983: p 1861: a 0x61: rd              : 0x74 0x01 
Video Channel PCLK Count Base
    23.934634: p 1862: a 0x60: wr reg 0x69 (A) : 0x80 
Pixel Clock Timing (l)
    23.935277: p 1863: a 0x60: wr reg 0x6e (A) : 
    23.935494: p 1864: a 0x61: rd              : 0xbb 0x00 
Pixel Clock Timing (l)
    23.936143: p 1865: a 0x60: wr reg 0x6e (A) : 
    23.936499: p 1872: a 0x61: rd              : 0xba 0x00 
Video Channel PCLK Count Base
    23.937155: p 1873: a 0x60: wr reg 0x69 (A) : 0xff 
Interrupt Status
    23.944930: p 1874: a 0x60: wr reg 0x70 (A) : 
    23.945148: p 1875: a 0x61: rd              : 0x00 
RX_AUDP_STAT
    23.945714: p 1876: a 0x68: wr reg 0x34 (A) : 
    23.945932: p 1877: a 0x69: rd              : 0x00 
RX_AUDP_STAT
    23.956975: p 1878: a 0x68: wr reg 0x34 (A) : 
    23.957193: p 1879: a 0x69: rd              : 0x00 
Pixel Clock Timing (l)
    23.957743: p 1880: a 0x60: wr reg 0x6e (A) : 
    23.957960: p 1881: a 0x61: rd              : 0x74 0x01 
Video Channel PCLK Count Base
    23.958613: p 1888: a 0x60: wr reg 0x69 (A) : 0x80 
Pixel Clock Timing (l)
    23.959256: p 1889: a 0x60: wr reg 0x6e (A) : 
    23.959474: p 1890: a 0x61: rd              : 0xbb 0x00 
Pixel Clock Timing (l)
    23.960125: p 1891: a 0x60: wr reg 0x6e (A) : 
    23.960497: p 1892: a 0x61: rd              : 0xba 0x00 
Video Channel PCLK Count Base
    23.961151: p 1893: a 0x60: wr reg 0x69 (A) : 0xff 
Interrupt Status
    23.961879: p 1894: a 0x60: wr reg 0x70 (A) : 
    23.962096: p 1895: a 0x61: rd              : 0x00 
RX_AUDP_STAT
    23.972970: p 1896: a 0x68: wr reg 0x34 (A) : 
    23.973188: p 1897: a 0x69: rd              : 0x00 
Pixel Clock Timing (l)
    23.973736: p 1904: a 0x60: wr reg 0x6e (A) : 
    23.973953: p 1905: a 0x61: rd              : 0x73 0x01 
Video Channel PCLK Count Base
    23.974606: p 1906: a 0x60: wr reg 0x69 (A) : 0x80 
Pixel Clock Timing (l)
    23.975251: p 1907: a 0x60: wr reg 0x6e (A) : 
    23.975469: p 1908: a 0x61: rd              : 0xbb 0x00 
Pixel Clock Timing (l)
    23.976119: p 1909: a 0x60: wr reg 0x6e (A) : 
    23.976494: p 1910: a 0x61: rd              : 0xba 0x00 
Video Channel PCLK Count Base
    23.977148: p 1911: a 0x60: wr reg 0x69 (A) : 0xff 
Interrupt Status
    23.977875: p 1912: a 0x60: wr reg 0x70 (A) : 
    23.978092: p 1913: a 0x61: rd              : 0x00 
Deep Color Status
    23.978648: p 1920: a 0x60: wr reg 0x61 (A) : 
    23.978866: p 1921: a 0x61: rd              : 0x00 
Interrupt Status
    23.984998: p 1922: a 0x60: wr reg 0x70 (A) : 
    23.985216: p 1923: a 0x61: rd              : 0x00 
RX_AUDP_STAT
    23.985786: p 1924: a 0x68: wr reg 0x34 (A) : 
    23.986003: p 1925: a 0x69: rd              : 0x00 
RX_AUDP_STAT
    23.992995: p 1926: a 0x68: wr reg 0x34 (A) : 
    23.993213: p 1927: a 0x69: rd              : 0x00 
Pixel Clock Timing (l)
    23.993761: p 1928: a 0x60: wr reg 0x6e (A) : 
    23.993979: p 1929: a 0x61: rd              : 0x73 0x01 
Video Channel PCLK Count Base
    23.994632: p 1936: a 0x60: wr reg 0x69 (A) : 0x80 
Pixel Clock Timing (l)
    23.995272: p 1937: a 0x60: wr reg 0x6e (A) : 
    23.995490: p 1938: a 0x61: rd              : 0xba 0x00 
Pixel Clock Timing (l)
    23.996139: p 1939: a 0x60: wr reg 0x6e (A) : 
    23.996493: p 1940: a 0x61: rd              : 0xba 0x00 
Video Channel PCLK Count Base
    23.997146: p 1941: a 0x60: wr reg 0x69 (A) : 0xff 
Interrupt Status
    24.004928: p 1942: a 0x60: wr reg 0x70 (A) : 
    24.005146: p 1943: a 0x61: rd              : 0x00 
RX_AUDP_STAT
    24.005712: p 1944: a 0x68: wr reg 0x34 (A) : 
    24.005930: p 1945: a 0x69: rd              : 0x00 
RX_AUDP_STAT
    24.016969: p 2048: a 0x68: wr reg 0x34 (A) : 
    24.017187: p 2049: a 0x69: rd              : 0x00 
Pixel Clock Timing (l)
    24.017733: p 2050: a 0x60: wr reg 0x6e (A) : 
    24.017951: p 2051: a 0x61: rd              : 0x74 0x01 
Video Channel PCLK Count Base
    24.018605: p 2052: a 0x60: wr reg 0x69 (A) : 0x80 
Pixel Clock Timing (l)
    24.019247: p 2053: a 0x60: wr reg 0x6e (A) : 
    24.019465: p 2054: a 0x61: rd              : 0xba 0x00 
Pixel Clock Timing (l)
    24.020113: p 2055: a 0x60: wr reg 0x6e (A) : 
    24.020493: p 2056: a 0x61: rd              : 0xbb 0x00 
Video Channel PCLK Count Base
    24.021148: p 2057: a 0x60: wr reg 0x69 (A) : 0xff 
Interrupt Status
    24.021873: p 2064: a 0x60: wr reg 0x70 (A) : 
    24.022091: p 2065: a 0x61: rd              : 0x00 
RX_AUDP_STAT
    24.036966: p 2066: a 0x68: wr reg 0x34 (A) : 
    24.037184: p 2067: a 0x69: rd              : 0x00 
Pixel Clock Timing (l)
    24.037731: p 2068: a 0x60: wr reg 0x6e (A) : 
    24.037949: p 2069: a 0x61: rd              : 0x74 0x01 
Video Channel PCLK Count Base
    24.038604: p 2070: a 0x60: wr reg 0x69 (A) : 0x80 
Pixel Clock Timing (l)
    24.039245: p 2071: a 0x60: wr reg 0x6e (A) : 
    24.039462: p 2072: a 0x61: rd              : 0xbb 0x00 
Pixel Clock Timing (l)
    24.040111: p 2073: a 0x60: wr reg 0x6e (A) : 
    24.040492: p 2080: a 0x61: rd              : 0xba 0x00 
Video Channel PCLK Count Base
    24.041148: p 2081: a 0x60: wr reg 0x69 (A) : 0xff 
Interrupt Status
    24.041875: p 2082: a 0x60: wr reg 0x70 (A) : 
    24.042092: p 2083: a 0x61: rd              : 0x00 
Deep Color Status
    24.042647: p 2084: a 0x60: wr reg 0x61 (A) : 
    24.042865: p 2085: a 0x61: rd              : 0x00 
Interrupt Status
    24.047532: p 2086: a 0x60: wr reg 0x70 (A) : 
    24.047816: p 2087: a 0x61: rd              : 0x00 
RX_AUDP_STAT
    24.048880: p 2088: a 0x68: wr reg 0x34 (A) : 
    24.049098: p 2089: a 0x69: rd              : 0x00 
RX_AUDP_STAT
    24.056991: p 2096: a 0x68: wr reg 0x34 (A) : 
    24.057209: p 2097: a 0x69: rd              : 0x00 
Pixel Clock Timing (l)
    24.057757: p 2098: a 0x60: wr reg 0x6e (A) : 
    24.057975: p 2099: a 0x61: rd              : 0x73 0x01 
Video Channel PCLK Count Base
    24.058626: p 2100: a 0x60: wr reg 0x69 (A) : 0x80 
Pixel Clock Timing (l)
    24.059266: p 2101: a 0x60: wr reg 0x6e (A) : 
    24.059484: p 2102: a 0x61: rd              : 0xba 0x00 
Pixel Clock Timing (l)
    24.060131: p 2103: a 0x60: wr reg 0x6e (A) : 
    24.060489: p 2104: a 0x61: rd              : 0xbb 0x00 
Video Channel PCLK Count Base
    24.061140: p 2105: a 0x60: wr reg 0x69 (A) : 0xff 
Interrupt Status
    24.061864: p 2112: a 0x60: wr reg 0x70 (A) : 
    24.062082: p 2113: a 0x61: rd              : 0x00 
RX_AUDP_STAT
    24.076964: p 2114: a 0x68: wr reg 0x34 (A) : 
    24.077181: p 2115: a 0x69: rd              : 0x00 
Pixel Clock Timing (l)
    24.077728: p 2116: a 0x60: wr reg 0x6e (A) : 
    24.077945: p 2117: a 0x61: rd              : 0x73 0x01 
Video Channel PCLK Count Base
    24.078594: p 2118: a 0x60: wr reg 0x69 (A) : 0x80 
Pixel Clock Timing (l)
    24.079237: p 2119: a 0x60: wr reg 0x6e (A) : 
    24.079455: p 2120: a 0x61: rd              : 0xba 0x00 
Pixel Clock Timing (l)
    24.080102: p 2121: a 0x60: wr reg 0x6e (A) : 
    24.080488: p 2128: a 0x61: rd              : 0xbb 0x00 
Video Channel PCLK Count Base
    24.081142: p 2129: a 0x60: wr reg 0x69 (A) : 0xff 
Interrupt Status
    24.081871: p 2130: a 0x60: wr reg 0x70 (A) : 
    24.082089: p 2131: a 0x61: rd              : 0x00 
RX_AUDP_STAT
    24.082656: p 2132: a 0x68: wr reg 0x34 (A) : 
    24.082874: p 2133: a 0x69: rd              : 0x00 
RX_AUDP_STAT
    24.092960: p 2134: a 0x68: wr reg 0x34 (A) : 
    24.093178: p 2135: a 0x69: rd              : 0x00 
Pixel Clock Timing (l)
    24.093723: p 2136: a 0x60: wr reg 0x6e (A) : 
    24.093941: p 2137: a 0x61: rd              : 0x73 0x01 
Video Channel PCLK Count Base
    24.094590: p 2144: a 0x60: wr reg 0x69 (A) : 0x80 
Pixel Clock Timing (l)
    24.095231: p 2145: a 0x60: wr reg 0x6e (A) : 
    24.095449: p 2146: a 0x61: rd              : 0xba 0x00 
Pixel Clock Timing (l)
    24.096100: p 2147: a 0x60: wr reg 0x6e (A) : 
    24.096487: p 2148: a 0x61: rd              : 0xba 0x00 
Video Channel PCLK Count Base
    24.097143: p 2149: a 0x60: wr reg 0x69 (A) : 0xff 
Interrupt Status
    24.097869: p 2150: a 0x60: wr reg 0x70 (A) : 
    24.098087: p 2151: a 0x61: rd              : 0x00 
Interrupt Status
    24.103672: p 2152: a 0x60: wr reg 0x70 (A) : 
    24.103960: p 2153: a 0x61: rd              : 0x00 
Deep Color Status
    24.104909: p 2160: a 0x60: wr reg 0x61 (A) : 
    24.105127: p 2161: a 0x61: rd              : 0x00 
RX_AUDP_STAT
    24.107050: p 2162: a 0x68: wr reg 0x34 (A) : 
    24.107268: p 2163: a 0x69: rd              : 0x00 
RX_AUDP_STAT
    24.112967: p 2164: a 0x68: wr reg 0x34 (A) : 
    24.113186: p 2165: a 0x69: rd              : 0x00 
Pixel Clock Timing (l)
    24.113733: p 2166: a 0x60: wr reg 0x6e (A) : 
    24.113951: p 2167: a 0x61: rd              : 0x74 0x01 
Video Channel PCLK Count Base
    24.114604: p 2168: a 0x60: wr reg 0x69 (A) : 0x80 
Pixel Clock Timing (l)
    24.115245: p 2169: a 0x60: wr reg 0x6e (A) : 
    24.115463: p 2176: a 0x61: rd              : 0xba 0x00 
Pixel Clock Timing (l)
    24.116111: p 2177: a 0x60: wr reg 0x6e (A) : 
    24.116488: p 2178: a 0x61: rd              : 0xbb 0x00 
Video Channel PCLK Count Base
    24.117140: p 2179: a 0x60: wr reg 0x69 (A) : 0xff 
Interrupt Status
    24.124924: p 2180: a 0x60: wr reg 0x70 (A) : 
    24.125142: p 2181: a 0x61: rd              : 0x00 
RX_AUDP_STAT
    24.136964: p 2182: a 0x68: wr reg 0x34 (A) : 
    24.137182: p 2183: a 0x69: rd              : 0x00 
Pixel Clock Timing (l)
    24.137728: p 2184: a 0x60: wr reg 0x6e (A) : 
    24.137946: p 2185: a 0x61: rd              : 0x74 0x01 
Video Channel PCLK Count Base
    24.138594: p 2192: a 0x60: wr reg 0x69 (A) : 0x80 
Pixel Clock Timing (l)
    24.139237: p 2193: a 0x60: wr reg 0x6e (A) : 
    24.139455: p 2194: a 0x61: rd              : 0xbb 0x00 
Pixel Clock Timing (l)
    24.140102: p 2195: a 0x60: wr reg 0x6e (A) : 
    24.140487: p 2196: a 0x61: rd              : 0xbb 0x00 
Video Channel PCLK Count Base
    24.141140: p 2197: a 0x60: wr reg 0x69 (A) : 0xff 
Interrupt Status
    24.141865: p 2198: a 0x60: wr reg 0x70 (A) : 
    24.142083: p 2199: a 0x61: rd              : 0x00 
RX_AUDP_STAT
    24.142651: p 2200: a 0x68: wr reg 0x34 (A) : 
    24.142869: p 2201: a 0x69: rd              : 0x00 
RX_AUDP_STAT
    24.156992: p 2304: a 0x68: wr reg 0x34 (A) : 
    24.157210: p 2305: a 0x69: rd              : 0x00 
Pixel Clock Timing (l)
    24.157760: p 2306: a 0x60: wr reg 0x6e (A) : 
    24.157978: p 2307: a 0x61: rd              : 0x74 0x01 
Video Channel PCLK Count Base
    24.158628: p 2308: a 0x60: wr reg 0x69 (A) : 0x80 
Pixel Clock Timing (l)
    24.159269: p 2309: a 0x60: wr reg 0x6e (A) : 
    24.159485: p 2310: a 0x61: rd              : 0xbb 0x00 
Pixel Clock Timing (l)
    24.160132: p 2311: a 0x60: wr reg 0x6e (A) : 
    24.160486: p 2312: a 0x61: rd              : 0xbb 0x00 
Video Channel PCLK Count Base
    24.161140: p 2313: a 0x60: wr reg 0x69 (A) : 0xff 
Interrupt Status
    24.161869: p 2320: a 0x60: wr reg 0x70 (A) : 
    24.162087: p 2321: a 0x61: rd              : 0x00 
Deep Color Status
    24.162645: p 2322: a 0x60: wr reg 0x61 (A) : 
    24.162863: p 2323: a 0x61: rd              : 0x00 
RX_AUDP_STAT
    24.165154: p 2324: a 0x68: wr reg 0x34 (A) : 
    24.165373: p 2325: a 0x69: rd              : 0x00 
RX_AUDP_STAT
    24.172962: p 2326: a 0x68: wr reg 0x34 (A) : 
    24.173180: p 2327: a 0x69: rd              : 0x00 
Pixel Clock Timing (l)
    24.173732: p 2328: a 0x60: wr reg 0x6e (A) : 
    24.173950: p 2329: a 0x61: rd              : 0x73 0x01 
Video Channel PCLK Count Base
    24.174602: p 2336: a 0x60: wr reg 0x69 (A) : 0x80 
Pixel Clock Timing (l)
    24.175248: p 2337: a 0x60: wr reg 0x6e (A) : 
    24.175465: p 2338: a 0x61: rd              : 0xbb 0x00 
Pixel Clock Timing (l)
    24.176118: p 2339: a 0x60: wr reg 0x6e (A) : 
    24.176484: p 2340: a 0x61: rd              : 0xbb 0x00 
Video Channel PCLK Count Base
    24.177145: p 2341: a 0x60: wr reg 0x69 (A) : 0xff 
Interrupt Status
    24.177869: p 2342: a 0x60: wr reg 0x70 (A) : 
    24.178088: p 2343: a 0x61: rd              : 0x00 
RX_AUDP_STAT
    24.192963: p 2344: a 0x68: wr reg 0x34 (A) : 
    24.193181: p 2345: a 0x69: rd              : 0x00 
Pixel Clock Timing (l)
    24.193730: p 2352: a 0x60: wr reg 0x6e (A) : 
    24.193948: p 2353: a 0x61: rd              : 0x73 0x01 
Video Channel PCLK Count Base
    24.194601: p 2354: a 0x60: wr reg 0x69 (A) : 0x80 
Pixel Clock Timing (l)
    24.195245: p 2355: a 0x60: wr reg 0x6e (A) : 
    24.195463: p 2356: a 0x61: rd              : 0xbb 0x00 
Pixel Clock Timing (l)
    24.196115: p 2357: a 0x60: wr reg 0x6e (A) : 
    24.196482: p 2358: a 0x61: rd              : 0xbb 0x00 
Video Channel PCLK Count Base
    24.197139: p 2359: a 0x60: wr reg 0x69 (A) : 0xff 
Interrupt Status
    24.197868: p 2360: a 0x60: wr reg 0x70 (A) : 
    24.198086: p 2361: a 0x61: rd              : 0x00 
RX_AUDP_STAT
    24.201138: p 2368: a 0x68: wr reg 0x34 (A) : 
    24.201355: p 2369: a 0x69: rd              : 0x00 
Interrupt Status
    24.206047: p 2370: a 0x60: wr reg 0x70 (A) : 
    24.206335: p 2371: a 0x61: rd              : 0x00 
RX_AUDP_STAT
    24.212978: p 2372: a 0x68: wr reg 0x34 (A) : 
    24.213196: p 2373: a 0x69: rd              : 0x00 
Pixel Clock Timing (l)
    24.213746: p 2374: a 0x60: wr reg 0x6e (A) : 
    24.213964: p 2375: a 0x61: rd              : 0x73 0x01 
Video Channel PCLK Count Base
    24.214617: p 2376: a 0x60: wr reg 0x69 (A) : 0x80 
Pixel Clock Timing (l)
    24.215259: p 2377: a 0x60: wr reg 0x6e (A) : 
    24.215477: p 2384: a 0x61: rd              : 0xbb 0x00 
Pixel Clock Timing (l)
    24.216126: p 2385: a 0x60: wr reg 0x6e (A) : 
    24.216484: p 2386: a 0x61: rd              : 0xbb 0x00 
Video Channel PCLK Count Base
    24.217139: p 2387: a 0x60: wr reg 0x69 (A) : 0xff 
Deep Color Status
    24.217865: p 2388: a 0x60: wr reg 0x61 (A) : 
    24.218083: p 2389: a 0x61: rd              : 0x00 
Interrupt Status
    24.224919: p 2390: a 0x60: wr reg 0x70 (A) : 
    24.225137: p 2391: a 0x61: rd              : 0x00 
RX_AUDP_STAT
    24.225707: p 2392: a 0x68: wr reg 0x34 (A) : 
    24.225925: p 2393: a 0x69: rd              : 0x00 
RX_AUDP_STAT
    24.236958: p 2400: a 0x68: wr reg 0x34 (A) : 
    24.237176: p 2401: a 0x69: rd              : 0x00 
Pixel Clock Timing (l)
    24.237728: p 2402: a 0x60: wr reg 0x6e (A) : 
    24.237946: p 2403: a 0x61: rd              : 0x74 0x01 
Video Channel PCLK Count Base
    24.238598: p 2404: a 0x60: wr reg 0x69 (A) : 0x80 
Pixel Clock Timing (l)
    24.239244: p 2405: a 0x60: wr reg 0x6e (A) : 
    24.239461: p 2406: a 0x61: rd              : 0xbb 0x00 
Pixel Clock Timing (l)
    24.240114: p 2407: a 0x60: wr reg 0x6e (A) : 
    24.240482: p 2408: a 0x61: rd              : 0xba 0x00 
Video Channel PCLK Count Base
    24.241141: p 2409: a 0x60: wr reg 0x69 (A) : 0xff 
Interrupt Status
    24.241868: p 2416: a 0x60: wr reg 0x70 (A) : 
    24.242086: p 2417: a 0x61: rd              : 0x00 
RX_AUDP_STAT
    24.256961: p 2418: a 0x68: wr reg 0x34 (A) : 
    24.257178: p 2419: a 0x69: rd              : 0x00 
Pixel Clock Timing (l)
    24.257728: p 2420: a 0x60: wr reg 0x6e (A) : 
    24.257946: p 2421: a 0x61: rd              : 0x73 0x01 
Video Channel PCLK Count Base
    24.258597: p 2422: a 0x60: wr reg 0x69 (A) : 0x80 
Pixel Clock Timing (l)
    24.259239: p 2423: a 0x60: wr reg 0x6e (A) : 
    24.259457: p 2424: a 0x61: rd              : 0xbb 0x00 
Pixel Clock Timing (l)
    24.260106: p 2425: a 0x60: wr reg 0x6e (A) : 
    24.260480: p 2432: a 0x61: rd              : 0xbb 0x00 
Video Channel PCLK Count Base
    24.261137: p 2433: a 0x60: wr reg 0x69 (A) : 0xff 
Interrupt Status
    24.261861: p 2434: a 0x60: wr reg 0x70 (A) : 
    24.262079: p 2435: a 0x61: rd              : 0x00 
Interrupt Status
    24.268771: p 2436: a 0x60: wr reg 0x70 (A) : 
    24.269057: p 2437: a 0x61: rd              : 0x00 
RX_AUDP_STAT
    24.269635: p 2438: a 0x68: wr reg 0x34 (A) : 
    24.269853: p 2439: a 0x69: rd              : 0x00 
Deep Color Status
    24.271411: p 2440: a 0x60: wr reg 0x61 (A) : 
    24.271628: p 2441: a 0x61: rd              : 0x00 
RX_AUDP_STAT
    24.280958: p 2448: a 0x68: wr reg 0x34 (A) : 
    24.281176: p 2449: a 0x69: rd              : 0x00 
Pixel Clock Timing (l)
    24.281726: p 2450: a 0x60: wr reg 0x6e (A) : 
    24.281944: p 2451: a 0x61: rd              : 0x73 0x01 
Video Channel PCLK Count Base
    24.282597: p 2452: a 0x60: wr reg 0x69 (A) : 0x80 
Pixel Clock Timing (l)
    24.283241: p 2453: a 0x60: wr reg 0x6e (A) : 
    24.283459: p 2454: a 0x61: rd              : 0xbb 0x00 
Pixel Clock Timing (l)
    24.284108: p 2455: a 0x60: wr reg 0x6e (A) : 
    24.284478: p 2456: a 0x61: rd              : 0xbb 0x00 
Video Channel PCLK Count Base
    24.285135: p 2457: a 0x60: wr reg 0x69 (A) : 0xff 
Interrupt Status
    24.285861: p 4096: a 0x60: wr reg 0x70 (A) : 
    24.286079: p 4097: a 0x61: rd              : 0x00 
Interrupt Status
    24.292911: p 4098: a 0x60: wr reg 0x70 (A) : 
    24.293129: p 4099: a 0x61: rd              : 0x00 
RX_AUDP_STAT
    24.304954: p 4100: a 0x68: wr reg 0x34 (A) : 
    24.305172: p 4101: a 0x69: rd              : 0x00 
Pixel Clock Timing (l)
    24.305722: p 4102: a 0x60: wr reg 0x6e (A) : 
    24.305940: p 4103: a 0x61: rd              : 0x73 0x01 
Video Channel PCLK Count Base
    24.306593: p 4104: a 0x60: wr reg 0x69 (A) : 0x80 
Pixel Clock Timing (l)
    24.307237: p 4105: a 0x60: wr reg 0x6e (A) : 
    24.307455: p 4112: a 0x61: rd              : 0xba 0x00 
Pixel Clock Timing (l)
    24.308108: p 4113: a 0x60: wr reg 0x6e (A) : 
    24.308480: p 4114: a 0x61: rd              : 0xbb 0x00 
Video Channel PCLK Count Base
    24.309134: p 4115: a 0x60: wr reg 0x69 (A) : 0xff 
Interrupt Status
    24.309861: p 4116: a 0x60: wr reg 0x70 (A) : 
    24.310079: p 4117: a 0x61: rd              : 0x00 
RX_AUDP_STAT
    24.311985: p 4118: a 0x68: wr reg 0x34 (A) : 
    24.312365: p 4119: a 0x69: rd              : 0x00 
Interrupt Status
    24.317113: p 4120: a 0x60: wr reg 0x70 (A) : 
    24.317417: p 4121: a 0x61: rd              : 0x00 
RX_AUDP_STAT
    24.328965: p 4128: a 0x68: wr reg 0x34 (A) : 
    24.329183: p 4129: a 0x69: rd              : 0x00 
Pixel Clock Timing (l)
    24.329738: p 4130: a 0x60: wr reg 0x6e (A) : 
    24.329956: p 4131: a 0x61: rd              : 0x73 0x01 
Video Channel PCLK Count Base
    24.330610: p 4132: a 0x60: wr reg 0x69 (A) : 0x80 
Pixel Clock Timing (l)
    24.331257: p 4133: a 0x60: wr reg 0x6e (A) : 
    24.331475: p 4134: a 0x61: rd              : 0xba 0x00 
Pixel Clock Timing (l)
    24.332127: p 4135: a 0x60: wr reg 0x6e (A) : 
    24.332477: p 4136: a 0x61: rd              : 0xbb 0x00 
Video Channel PCLK Count Base
    24.333136: p 4137: a 0x60: wr reg 0x69 (A) : 0xff 
Interrupt Status
    24.333865: p 4144: a 0x60: wr reg 0x70 (A) : 
    24.334083: p 4145: a 0x61: rd              : 0x00 
Deep Color Status
    24.334640: p 4146: a 0x60: wr reg 0x61 (A) : 
    24.334858: p 4147: a 0x61: rd              : 0x00 
RX_AUDP_STAT
    24.344954: p 4148: a 0x68: wr reg 0x34 (A) : 
    24.345172: p 4149: a 0x69: rd              : 0x00 
Pixel Clock Timing (l)
    24.345724: p 4150: a 0x60: wr reg 0x6e (A) : 
    24.345941: p 4151: a 0x61: rd              : 0x73 0x01 
Video Channel PCLK Count Base
    24.346597: p 4152: a 0x60: wr reg 0x69 (A) : 0x80 
Pixel Clock Timing (l)
    24.347241: p 4153: a 0x60: wr reg 0x6e (A) : 
    24.347459: p 4160: a 0x61: rd              : 0xbb 0x00 
Pixel Clock Timing (l)
    24.348110: p 4161: a 0x60: wr reg 0x6e (A) : 
    24.348476: p 4162: a 0x61: rd              : 0xbb 0x00 
Video Channel PCLK Count Base
    24.349132: p 4163: a 0x60: wr reg 0x69 (A) : 0xff 
Interrupt Status
    24.349861: p 4164: a 0x60: wr reg 0x70 (A) : 
    24.350079: p 4165: a 0x61: rd              : 0x00 
RX_AUDP_STAT
    24.350649: p 4166: a 0x68: wr reg 0x34 (A) : 
    24.350867: p 4167: a 0x69: rd              : 0x00 
RX_AUDP_STAT
    24.360954: p 4168: a 0x68: wr reg 0x34 (A) : 
    24.361172: p 4169: a 0x69: rd              : 0x00 
Pixel Clock Timing (l)
    24.361722: p 4176: a 0x60: wr reg 0x6e (A) : 
    24.361940: p 4177: a 0x61: rd              : 0x73 0x01 
Video Channel PCLK Count Base
    24.362591: p 4178: a 0x60: wr reg 0x69 (A) : 0x80 
Pixel Clock Timing (l)
    24.363233: p 4179: a 0x60: wr reg 0x6e (A) : 
    24.363452: p 4180: a 0x61: rd              : 0xbb 0x00 
Pixel Clock Timing (l)
    24.364100: p 4181: a 0x60: wr reg 0x6e (A) : 
    24.364476: p 4182: a 0x61: rd              : 0xbb 0x00 
Video Channel PCLK Count Base
    24.365131: p 4183: a 0x60: wr reg 0x69 (A) : 0xff 
Interrupt Status
    24.365858: p 4184: a 0x60: wr reg 0x70 (A) : 
    24.366076: p 4185: a 0x61: rd              : 0x00 
Interrupt Status
    24.372907: p 4192: a 0x60: wr reg 0x70 (A) : 
    24.373125: p 4193: a 0x61: rd              : 0x00 
RX_AUDP_STAT
    24.377857: p 4194: a 0x68: wr reg 0x34 (A) : 
    24.378145: p 4195: a 0x69: rd              : 0x00 
Pixel Clock Timing (l)
    24.378701: p 4196: a 0x60: wr reg 0x6e (A) : 
    24.378919: p 4197: a 0x61: rd              : 0x73 0x01 
Video Channel PCLK Count Base
    24.379571: p 4198: a 0x60: wr reg 0x69 (A) : 0x80 
Pixel Clock Timing (l)
    24.380410: p 4199: a 0x60: wr reg 0x6e (A) : 
    24.380689: p 4200: a 0x61: rd              : 0xba 0x00 
Pixel Clock Timing (l)
    24.381346: p 4201: a 0x60: wr reg 0x6e (A) : 
    24.381564: p 4208: a 0x61: rd              : 0xba 0x00 
Video Channel PCLK Count Base
    24.382215: p 4209: a 0x60: wr reg 0x69 (A) : 0xff 
RX_AUDP_STAT
    24.382956: p 4210: a 0x68: wr reg 0x34 (A) : 
    24.383174: p 4211: a 0x69: rd              : 0x00 
Interrupt Status
    24.392913: p 4212: a 0x60: wr reg 0x70 (A) : 
    24.393131: p 4213: a 0x61: rd              : 0x00 
RX_AUDP_STAT
    24.395075: p 4214: a 0x68: wr reg 0x34 (A) : 
    24.395293: p 4215: a 0x69: rd              : 0x00 
Pixel Clock Timing (l)
    24.395840: p 4216: a 0x60: wr reg 0x6e (A) : 
    24.396058: p 4217: a 0x61: rd              : 0x73 0x01 
Video Channel PCLK Count Base
    24.396914: p 4224: a 0x60: wr reg 0x69 (A) : 0x80 
Pixel Clock Timing (l)
    24.397556: p 4225: a 0x60: wr reg 0x6e (A) : 
    24.397774: p 4226: a 0x61: rd              : 0xbb 0x00 
Pixel Clock Timing (l)
    24.398421: p 4227: a 0x60: wr reg 0x6e (A) : 
    24.398639: p 4228: a 0x61: rd              : 0xbb 0x00 
Video Channel PCLK Count Base
    24.399289: p 4229: a 0x60: wr reg 0x69 (A) : 0xff 
Deep Color Status
    24.400016: p 4230: a 0x60: wr reg 0x61 (A) : 
    24.400360: p 4231: a 0x61: rd              : 0x00 
Interrupt Status
    24.408911: p 4232: a 0x60: wr reg 0x70 (A) : 
    24.409129: p 4233: a 0x61: rd              : 0x00 
RX_AUDP_STAT
    24.409698: p 4240: a 0x68: wr reg 0x34 (A) : 
    24.409915: p 4241: a 0x69: rd              : 0x00 
RX_AUDP_STAT
    24.416953: p 4242: a 0x68: wr reg 0x34 (A) : 
    24.417171: p 4243: a 0x69: rd              : 0x00 
Pixel Clock Timing (l)
    24.417721: p 4244: a 0x60: wr reg 0x6e (A) : 
    24.417939: p 4245: a 0x61: rd              : 0x74 0x01 
Video Channel PCLK Count Base
    24.418589: p 4246: a 0x60: wr reg 0x69 (A) : 0x80 
Pixel Clock Timing (l)
    24.419232: p 4247: a 0x60: wr reg 0x6e (A) : 
    24.419450: p 4248: a 0x61: rd              : 0xbb 0x00 
Pixel Clock Timing (l)
    24.420101: p 4249: a 0x60: wr reg 0x6e (A) : 
    24.420471: p 4352: a 0x61: rd              : 0xbb 0x00 
Video Channel PCLK Count Base
    24.421128: p 4353: a 0x60: wr reg 0x69 (A) : 0xff 
Interrupt Status
    24.428908: p 4354: a 0x60: wr reg 0x70 (A) : 
    24.429126: p 4355: a 0x61: rd              : 0x00 
RX_AUDP_STAT
    24.434907: p 4356: a 0x68: wr reg 0x34 (A) : 
    24.435125: p 4357: a 0x69: rd              : 0x00 
Pixel Clock Timing (l)
    24.435675: p 4358: a 0x60: wr reg 0x6e (A) : 
    24.435893: p 4359: a 0x61: rd              : 0x73 0x01 
Video Channel PCLK Count Base
    24.436927: p 4360: a 0x60: wr reg 0x69 (A) : 0x80 
Pixel Clock Timing (l)
    24.437570: p 4361: a 0x60: wr reg 0x6e (A) : 
    24.437788: p 4368: a 0x61: rd              : 0xbb 0x00 
Pixel Clock Timing (l)
    24.438437: p 4369: a 0x60: wr reg 0x6e (A) : 
    24.438655: p 4370: a 0x61: rd              : 0xbb 0x00 
Video Channel PCLK Count Base
    24.439304: p 4371: a 0x60: wr reg 0x69 (A) : 0xff 
RX_AUDP_STAT
    24.440047: p 4372: a 0x68: wr reg 0x34 (A) : 
    24.440362: p 4373: a 0x69: rd              : 0x00 
Interrupt Status
    24.442358: p 4374: a 0x60: wr reg 0x70 (A) : 
    24.442576: p 4375: a 0x61: rd              : 0x00 
RX_AUDP_STAT
    24.452949: p 4376: a 0x68: wr reg 0x34 (A) : 
    24.453167: p 4377: a 0x69: rd              : 0x00 
Pixel Clock Timing (l)
    24.453715: p 4384: a 0x60: wr reg 0x6e (A) : 
    24.453933: p 4385: a 0x61: rd              : 0x73 0x01 
Video Channel PCLK Count Base
    24.454584: p 4386: a 0x60: wr reg 0x69 (A) : 0x80 
Pixel Clock Timing (l)
    24.455224: p 4387: a 0x60: wr reg 0x6e (A) : 
    24.455443: p 4388: a 0x61: rd              : 0xba 0x00 
Pixel Clock Timing (l)
    24.456091: p 4389: a 0x60: wr reg 0x6e (A) : 
    24.456469: p 4390: a 0x61: rd              : 0xbb 0x00 
Video Channel PCLK Count Base
    24.457124: p 4391: a 0x60: wr reg 0x69 (A) : 0xff 
Interrupt Status
    24.457849: p 4392: a 0x60: wr reg 0x70 (A) : 
    24.458067: p 4393: a 0x61: rd              : 0x00 
Deep Color Status
    24.458620: p 4400: a 0x60: wr reg 0x61 (A) : 
    24.458838: p 4401: a 0x61: rd              : 0x00 
Interrupt Status
    24.464904: p 4402: a 0x60: wr reg 0x70 (A) : 
    24.465122: p 4403: a 0x61: rd              : 0x00 
RX_AUDP_STAT
    24.465691: p 4404: a 0x68: wr reg 0x34 (A) : 
    24.465909: p 4405: a 0x69: rd              : 0x00 
RX_AUDP_STAT
    24.476949: p 4406: a 0x68: wr reg 0x34 (A) : 
    24.477167: p 4407: a 0x69: rd              : 0x00 
Pixel Clock Timing (l)
    24.477716: p 4408: a 0x60: wr reg 0x6e (A) : 
    24.477934: p 4409: a 0x61: rd              : 0x74 0x01 
Video Channel PCLK Count Base
    24.478586: p 4416: a 0x60: wr reg 0x69 (A) : 0x80 
Pixel Clock Timing (l)
    24.479228: p 4417: a 0x60: wr reg 0x6e (A) : 
    24.479446: p 4418: a 0x61: rd              : 0xbb 0x00 
Pixel Clock Timing (l)
    24.480097: p 4419: a 0x60: wr reg 0x6e (A) : 
    24.480469: p 4420: a 0x61: rd              : 0xbb 0x00 
Video Channel PCLK Count Base
    24.481127: p 4421: a 0x60: wr reg 0x69 (A) : 0xff 
Interrupt Status
    24.481854: p 4422: a 0x60: wr reg 0x70 (A) : 
    24.482072: p 4423: a 0x61: rd              : 0x00 
Interrupt Status
    24.488907: p 4424: a 0x60: wr reg 0x70 (A) : 
    24.489126: p 4425: a 0x61: rd              : 0x00 
RX_AUDP_STAT
    24.494705: p 4432: a 0x68: wr reg 0x34 (A) : 
    24.494993: p 4433: a 0x69: rd              : 0x00 
Pixel Clock Timing (l)
    24.495553: p 4434: a 0x60: wr reg 0x6e (A) : 
    24.495771: p 4435: a 0x61: rd              : 0x74 0x01 
Video Channel PCLK Count Base
    24.496920: p 4436: a 0x60: wr reg 0x69 (A) : 0x80 
Pixel Clock Timing (l)
    24.497563: p 4437: a 0x60: wr reg 0x6e (A) : 
    24.497781: p 4438: a 0x61: rd              : 0xbb 0x00 
Pixel Clock Timing (l)
    24.498431: p 4439: a 0x60: wr reg 0x6e (A) : 
    24.498649: p 4440: a 0x61: rd              : 0xba 0x00 
Video Channel PCLK Count Base
    24.499299: p 4441: a 0x60: wr reg 0x69 (A) : 0xff 
RX_AUDP_STAT
    24.500042: p 4448: a 0x68: wr reg 0x34 (A) : 
    24.500359: p 4449: a 0x69: rd              : 0x00 
Interrupt Status
    24.508904: p 4450: a 0x60: wr reg 0x70 (A) : 
    24.509121: p 4451: a 0x61: rd              : 0x00 
RX_AUDP_STAT
    24.511988: p 4452: a 0x68: wr reg 0x34 (A) : 
    24.512356: p 4453: a 0x69: rd              : 0x00 
Pixel Clock Timing (l)
    24.512911: p 4454: a 0x60: wr reg 0x6e (A) : 
    24.513129: p 4455: a 0x61: rd              : 0x73 0x01 
Video Channel PCLK Count Base
    24.513778: p 4456: a 0x60: wr reg 0x69 (A) : 0x80 
Pixel Clock Timing (l)
    24.514420: p 4457: a 0x60: wr reg 0x6e (A) : 
    24.514639: p 4464: a 0x61: rd              : 0xba 0x00 
Pixel Clock Timing (l)
    24.515287: p 4465: a 0x60: wr reg 0x6e (A) : 
    24.515505: p 4466: a 0x61: rd              : 0xbb 0x00 
Video Channel PCLK Count Base
    24.516154: p 4467: a 0x60: wr reg 0x69 (A) : 0xff 
Deep Color Status
    24.517004: p 4468: a 0x60: wr reg 0x61 (A) : 
    24.517222: p 4469: a 0x61: rd              : 0x00 
Interrupt Status
    24.524902: p 4470: a 0x60: wr reg 0x70 (A) : 
    24.525120: p 4471: a 0x61: rd              : 0x00 
RX_AUDP_STAT
    24.525688: p 4472: a 0x68: wr reg 0x34 (A) : 
    24.525906: p 4473: a 0x69: rd              : 0x00 
RX_AUDP_STAT
    24.532946: p 4480: a 0x68: wr reg 0x34 (A) : 
    24.533164: p 4481: a 0x69: rd              : 0x00 
Pixel Clock Timing (l)
    24.533713: p 4482: a 0x60: wr reg 0x6e (A) : 
    24.533931: p 4483: a 0x61: rd              : 0x74 0x01 
Video Channel PCLK Count Base
    24.534582: p 4484: a 0x60: wr reg 0x69 (A) : 0x80 
Pixel Clock Timing (l)
    24.535227: p 4485: a 0x60: wr reg 0x6e (A) : 
    24.535445: p 4486: a 0x61: rd              : 0xba 0x00 
Pixel Clock Timing (l)
    24.536095: p 4487: a 0x60: wr reg 0x6e (A) : 
    24.536469: p 4488: a 0x61: rd              : 0xba 0x00 
Video Channel PCLK Count Base
    24.537124: p 4489: a 0x60: wr reg 0x69 (A) : 0xff 
Interrupt Status
    24.544933: p 4496: a 0x60: wr reg 0x70 (A) : 
    24.545150: p 4497: a 0x61: rd              : 0x00 
RX_AUDP_STAT
    24.549880: p 4498: a 0x68: wr reg 0x34 (A) : 
    24.550165: p 4499: a 0x69: rd              : 0x00 
Pixel Clock Timing (l)
    24.550724: p 4500: a 0x60: wr reg 0x6e (A) : 
    24.550942: p 4501: a 0x61: rd              : 0x73 0x01 
Video Channel PCLK Count Base
    24.551593: p 4502: a 0x60: wr reg 0x69 (A) : 0x80 
Pixel Clock Timing (l)
    24.552433: p 4503: a 0x60: wr reg 0x6e (A) : 
    24.552713: p 4504: a 0x61: rd              : 0xba 0x00 
Pixel Clock Timing (l)
    24.553368: p 4505: a 0x60: wr reg 0x6e (A) : 
    24.553586: p 4608: a 0x61: rd              : 0xbb 0x00 
Video Channel PCLK Count Base
    24.554234: p 4609: a 0x60: wr reg 0x69 (A) : 0xff 
RX_AUDP_STAT
    24.554975: p 4610: a 0x68: wr reg 0x34 (A) : 
    24.555193: p 4611: a 0x69: rd              : 0x00 
Interrupt Status
    24.556457: p 4612: a 0x60: wr reg 0x70 (A) : 
    24.556676: p 4613: a 0x61: rd              : 0x00 
RX_AUDP_STAT
    24.568944: p 4614: a 0x68: wr reg 0x34 (A) : 
    24.569162: p 4615: a 0x69: rd              : 0x00 
Pixel Clock Timing (l)
    24.569716: p 4616: a 0x60: wr reg 0x6e (A) : 
    24.569934: p 4617: a 0x61: rd              : 0x74 0x01 
Video Channel PCLK Count Base
    24.570587: p 4624: a 0x60: wr reg 0x69 (A) : 0x80 
Pixel Clock Timing (l)
    24.571231: p 4625: a 0x60: wr reg 0x6e (A) : 
    24.571449: p 4626: a 0x61: rd              : 0xbb 0x00 
Pixel Clock Timing (l)
    24.572102: p 4627: a 0x60: wr reg 0x6e (A) : 
    24.572464: p 4628: a 0x61: rd              : 0xbb 0x00 
Video Channel PCLK Count Base
    24.573121: p 4629: a 0x60: wr reg 0x69 (A) : 0xff 
Interrupt Status
    24.573850: p 4630: a 0x60: wr reg 0x70 (A) : 
    24.574067: p 4631: a 0x61: rd              : 0x00 
Deep Color Status
    24.574625: p 4632: a 0x60: wr reg 0x61 (A) : 
    24.574843: p 4633: a 0x61: rd              : 0x00 
Interrupt Status
    24.580927: p 4640: a 0x60: wr reg 0x70 (A) : 
    24.581145: p 4641: a 0x61: rd              : 0x00 
RX_AUDP_STAT
    24.581715: p 4642: a 0x68: wr reg 0x34 (A) : 
    24.581932: p 4643: a 0x69: rd              : 0x00 
RX_AUDP_STAT
    24.592941: p 4644: a 0x68: wr reg 0x34 (A) : 
    24.593159: p 4645: a 0x69: rd              : 0x00 
Pixel Clock Timing (l)
    24.593709: p 4646: a 0x60: wr reg 0x6e (A) : 
    24.593927: p 4647: a 0x61: rd              : 0x74 0x01 
Video Channel PCLK Count Base
    24.594576: p 4648: a 0x60: wr reg 0x69 (A) : 0x80 
Pixel Clock Timing (l)
    24.595219: p 4649: a 0x60: wr reg 0x6e (A) : 
    24.595437: p 4656: a 0x61: rd              : 0xbb 0x00 
Pixel Clock Timing (l)
    24.596086: p 4657: a 0x60: wr reg 0x6e (A) : 
    24.596463: p 4658: a 0x61: rd              : 0xba 0x00 
Video Channel PCLK Count Base
    24.597116: p 4659: a 0x60: wr reg 0x69 (A) : 0xff 
Interrupt Status
    24.597843: p 4660: a 0x60: wr reg 0x70 (A) : 
    24.598061: p 4661: a 0x61: rd              : 0x00 
Interrupt Status
    24.604900: p 4662: a 0x60: wr reg 0x70 (A) : 
    24.605118: p 4663: a 0x61: rd              : 0x00 
RX_AUDP_STAT
    24.611550: p 4664: a 0x68: wr reg 0x34 (A) : 
    24.611836: p 4665: a 0x69: rd              : 0x00 
Pixel Clock Timing (l)
    24.612848: p 4672: a 0x60: wr reg 0x6e (A) : 
    24.613066: p 4673: a 0x61: rd              : 0x74 0x01 
Video Channel PCLK Count Base
    24.613718: p 4674: a 0x60: wr reg 0x69 (A) : 0x80 
Pixel Clock Timing (l)
    24.614361: p 4675: a 0x60: wr reg 0x6e (A) : 
    24.614579: p 4676: a 0x61: rd              : 0xbb 0x00 
Pixel Clock Timing (l)
    24.615230: p 4677: a 0x60: wr reg 0x6e (A) : 
    24.615447: p 4678: a 0x61: rd              : 0xba 0x00 
Video Channel PCLK Count Base
    24.616098: p 4679: a 0x60: wr reg 0x69 (A) : 0xff 
RX_AUDP_STAT
    24.616995: p 4680: a 0x68: wr reg 0x34 (A) : 
    24.617213: p 4681: a 0x69: rd              : 0x00 
Interrupt Status
    24.624900: p 4688: a 0x60: wr reg 0x70 (A) : 
    24.625118: p 4689: a 0x61: rd              : 0x00 
Deep Color Status
    24.627028: p 4690: a 0x60: wr reg 0x61 (A) : 
    24.627246: p 4691: a 0x61: rd              : 0x00 
RX_AUDP_STAT
    24.632970: p 4692: a 0x68: wr reg 0x34 (A) : 
    24.633187: p 4693: a 0x69: rd              : 0x00 
Pixel Clock Timing (l)
    24.633736: p 4694: a 0x60: wr reg 0x6e (A) : 
    24.633954: p 4695: a 0x61: rd              : 0x73 0x01 
Video Channel PCLK Count Base
    24.634604: p 4696: a 0x60: wr reg 0x69 (A) : 0x80 
Pixel Clock Timing (l)
    24.635247: p 4697: a 0x60: wr reg 0x6e (A) : 
    24.635465: p 4704: a 0x61: rd              : 0xbb 0x00 
Pixel Clock Timing (l)
    24.636115: p 4705: a 0x60: wr reg 0x6e (A) : 
    24.636461: p 4706: a 0x61: rd              : 0xba 0x00 
Video Channel PCLK Count Base
    24.637116: p 4707: a 0x60: wr reg 0x69 (A) : 0xff 
RX_AUDP_STAT
    24.637855: p 4708: a 0x68: wr reg 0x34 (A) : 
    24.638073: p 4709: a 0x69: rd              : 0x00 
Interrupt Status
    24.644900: p 4710: a 0x60: wr reg 0x70 (A) : 
    24.645118: p 4711: a 0x61: rd              : 0x00 
RX_AUDP_STAT
    24.656938: p 4712: a 0x68: wr reg 0x34 (A) : 
    24.657155: p 4713: a 0x69: rd              : 0x00 
Pixel Clock Timing (l)
    24.657708: p 4720: a 0x60: wr reg 0x6e (A) : 
    24.657926: p 4721: a 0x61: rd              : 0x73 0x01 
Video Channel PCLK Count Base
    24.658576: p 4722: a 0x60: wr reg 0x69 (A) : 0x80 
Pixel Clock Timing (l)
    24.659219: p 4723: a 0x60: wr reg 0x6e (A) : 
    24.659437: p 4724: a 0x61: rd              : 0xbb 0x00 
Pixel Clock Timing (l)
    24.660087: p 4725: a 0x60: wr reg 0x6e (A) : 
    24.660460: p 4726: a 0x61: rd              : 0xbb 0x00 
Video Channel PCLK Count Base
    24.661114: p 4727: a 0x60: wr reg 0x69 (A) : 0xff 
Interrupt Status
    24.661841: p 4728: a 0x60: wr reg 0x70 (A) : 
    24.662059: p 4729: a 0x61: rd              : 0x00 
Interrupt Status
    24.667634: p 4736: a 0x60: wr reg 0x70 (A) : 
    24.667921: p 4737: a 0x61: rd              : 0x00 
RX_AUDP_STAT
    24.668960: p 4738: a 0x68: wr reg 0x34 (A) : 
    24.669178: p 4739: a 0x69: rd              : 0x00 
RX_AUDP_STAT
    24.676939: p 4740: a 0x68: wr reg 0x34 (A) : 
    24.677157: p 4741: a 0x69: rd              : 0x00 
Pixel Clock Timing (l)
    24.677708: p 4742: a 0x60: wr reg 0x6e (A) : 
    24.677925: p 4743: a 0x61: rd              : 0x73 0x01 
Video Channel PCLK Count Base
    24.678578: p 4744: a 0x60: wr reg 0x69 (A) : 0x80 
Pixel Clock Timing (l)
    24.679220: p 4745: a 0x60: wr reg 0x6e (A) : 
    24.679438: p 4752: a 0x61: rd              : 0xba 0x00 
Pixel Clock Timing (l)
    24.680090: p 4753: a 0x60: wr reg 0x6e (A) : 
    24.680460: p 4754: a 0x61: rd              : 0xbb 0x00 
Video Channel PCLK Count Base
    24.681114: p 4755: a 0x60: wr reg 0x69 (A) : 0xff 
Deep Color Status
    24.681843: p 4756: a 0x60: wr reg 0x61 (A) : 
    24.682060: p 4757: a 0x61: rd              : 0x00 
Interrupt Status
    24.688896: p 4758: a 0x60: wr reg 0x70 (A) : 
    24.689114: p 4759: a 0x61: rd              : 0x00 
RX_AUDP_STAT
    24.689684: p 4760: a 0x68: wr reg 0x34 (A) : 
    24.689902: p 4761: a 0x69: rd              : 0x00 
RX_AUDP_STAT
    24.700937: p 4864: a 0x68: wr reg 0x34 (A) : 
    24.701155: p 4865: a 0x69: rd              : 0x00 
Pixel Clock Timing (l)
    24.701703: p 4866: a 0x60: wr reg 0x6e (A) : 
    24.701921: p 4867: a 0x61: rd              : 0x73 0x01 
Video Channel PCLK Count Base
    24.702569: p 4868: a 0x60: wr reg 0x69 (A) : 0x80 
Pixel Clock Timing (l)
    24.703212: p 4869: a 0x60: wr reg 0x6e (A) : 
    24.703430: p 4870: a 0x61: rd              : 0xba 0x00 
Pixel Clock Timing (l)
    24.704081: p 4871: a 0x60: wr reg 0x6e (A) : 
    24.704459: p 4872: a 0x61: rd              : 0xbb 0x00 
Video Channel PCLK Count Base
    24.705114: p 4873: a 0x60: wr reg 0x69 (A) : 0xff 
Interrupt Status
    24.705841: p 4880: a 0x60: wr reg 0x70 (A) : 
    24.706059: p 4881: a 0x61: rd              : 0x00 
RX_AUDP_STAT
    24.716938: p 4882: a 0x68: wr reg 0x34 (A) : 
    24.717156: p 4883: a 0x69: rd              : 0x00 
Pixel Clock Timing (l)
    24.717706: p 4884: a 0x60: wr reg 0x6e (A) : 
    24.717924: p 4885: a 0x61: rd              : 0x74 0x01 
Video Channel PCLK Count Base
    24.718576: p 4886: a 0x60: wr reg 0x69 (A) : 0x80 
Pixel Clock Timing (l)
    24.719219: p 4887: a 0x60: wr reg 0x6e (A) : 
    24.719437: p 4888: a 0x61: rd              : 0xbb 0x00 
Pixel Clock Timing (l)
    24.720088: p 4889: a 0x60: wr reg 0x6e (A) : 
    24.720457: p 4896: a 0x61: rd              : 0xbb 0x00 
Video Channel PCLK Count Base
    24.721117: p 4897: a 0x60: wr reg 0x69 (A) : 0xff 
Interrupt Status
    24.721845: p 4898: a 0x60: wr reg 0x70 (A) : 
    24.722063: p 4899: a 0x61: rd              : 0x00 
Interrupt Status
    24.728770: p 4900: a 0x60: wr reg 0x70 (A) : 
    24.729055: p 4901: a 0x61: rd              : 0x00 
RX_AUDP_STAT
    24.729634: p 4902: a 0x68: wr reg 0x34 (A) : 
    24.729852: p 4903: a 0x69: rd              : 0x00 
RX_AUDP_STAT
    24.736960: p 4904: a 0x68: wr reg 0x34 (A) : 
    24.737178: p 4905: a 0x69: rd              : 0x00 
Pixel Clock Timing (l)
    24.737727: p 4912: a 0x60: wr reg 0x6e (A) : 
    24.737945: p 4913: a 0x61: rd              : 0x73 0x01 
Video Channel PCLK Count Base
    24.738598: p 4914: a 0x60: wr reg 0x69 (A) : 0x80 
Pixel Clock Timing (l)
    24.739243: p 4915: a 0x60: wr reg 0x6e (A) : 
    24.739461: p 4916: a 0x61: rd              : 0xbb 0x00 
Pixel Clock Timing (l)
    24.740112: p 4917: a 0x60: wr reg 0x6e (A) : 
    24.740460: p 4918: a 0x61: rd              : 0xba 0x00 
Video Channel PCLK Count Base
    24.741117: p 4919: a 0x60: wr reg 0x69 (A) : 0xff 
Interrupt Status
    24.743275: p 4920: a 0x60: wr reg 0x70 (A) : 
    24.743493: p 4921: a 0x61: rd              : 0x00 
Deep Color Status
    24.744049: p 4928: a 0x60: wr reg 0x61 (A) : 
    24.744460: p 4929: a 0x61: rd              : 0x00 
RX_AUDP_STAT
    24.752934: p 4930: a 0x68: wr reg 0x34 (A) : 
    24.753152: p 4931: a 0x69: rd              : 0x00 
Pixel Clock Timing (l)
    24.753702: p 4932: a 0x60: wr reg 0x6e (A) : 
    24.753919: p 4933: a 0x61: rd              : 0x73 0x01 
Video Channel PCLK Count Base
    24.754572: p 4934: a 0x60: wr reg 0x69 (A) : 0x80 
Pixel Clock Timing (l)
    24.755218: p 4935: a 0x60: wr reg 0x6e (A) : 
    24.755435: p 4936: a 0x61: rd              : 0xba 0x00 
Pixel Clock Timing (l)
    24.756086: p 4937: a 0x60: wr reg 0x6e (A) : 
    24.756458: p 4944: a 0x61: rd              : 0xbb 0x00 
Video Channel PCLK Count Base
    24.757116: p 4945: a 0x60: wr reg 0x69 (A) : 0xff 
Interrupt Status
    24.757845: p 4946: a 0x60: wr reg 0x70 (A) : 
    24.758063: p 4947: a 0x61: rd              : 0x00 
RX_AUDP_STAT
    24.758633: p 4948: a 0x68: wr reg 0x34 (A) : 
    24.758851: p 4949: a 0x69: rd              : 0x00 
RX_AUDP_STAT
    24.776936: p 4950: a 0x68: wr reg 0x34 (A) : 
    24.777154: p 4951: a 0x69: rd              : 0x00 
Pixel Clock Timing (l)
    24.777704: p 4952: a 0x60: wr reg 0x6e (A) : 
    24.777922: p 4953: a 0x61: rd              : 0x73 0x01 
Video Channel PCLK Count Base
    24.778575: p 4960: a 0x60: wr reg 0x69 (A) : 0x80 
Pixel Clock Timing (l)
    24.779217: p 4961: a 0x60: wr reg 0x6e (A) : 
    24.779435: p 4962: a 0x61: rd              : 0xbb 0x00 
Pixel Clock Timing (l)
    24.780086: p 4963: a 0x60: wr reg 0x6e (A) : 
    24.780454: p 4964: a 0x61: rd              : 0xbb 0x00 
Video Channel PCLK Count Base
    24.781111: p 4965: a 0x60: wr reg 0x69 (A) : 0xff 
Interrupt Status
    24.781838: p 4966: a 0x60: wr reg 0x70 (A) : 
    24.782055: p 4967: a 0x61: rd              : 0x00 
RX_AUDP_STAT
    24.803688: p 4968: a 0x68: wr reg 0x34 (A) : 
    24.803906: p 4969: a 0x69: rd              : 0x00 
Pixel Clock Timing (l)
    24.804696: p 4976: a 0x60: wr reg 0x6e (A) : 
    24.804914: p 4977: a 0x61: rd              : 0x73 0x01 
Video Channel PCLK Count Base
    24.805560: p 4978: a 0x60: wr reg 0x69 (A) : 0x80 
Pixel Clock Timing (l)
    24.806203: p 4979: a 0x60: wr reg 0x6e (A) : 
    24.806421: p 4980: a 0x61: rd              : 0xbb 0x00 
Pixel Clock Timing (l)
    24.807066: p 4981: a 0x60: wr reg 0x6e (A) : 
    24.807284: p 4982: a 0x61: rd              : 0xbb 0x00 
Video Channel PCLK Count Base
    24.807928: p 4983: a 0x60: wr reg 0x69 (A) : 0xff 
Interrupt Status
    24.808884: p 4984: a 0x60: wr reg 0x70 (A) : 
    24.809101: p 4985: a 0x61: rd              : 0x00 
Deep Color Status
    24.809653: p 4992: a 0x60: wr reg 0x61 (A) : 
    24.809871: p 4993: a 0x61: rd              : 0x00 
RX_AUDP_STAT
    24.811892: p 4994: a 0x68: wr reg 0x34 (A) : 
    24.812110: p 4995: a 0x69: rd              : 0x00 
Interrupt Status
    24.814151: p 4996: a 0x60: wr reg 0x70 (A) : 
    24.814369: p 4997: a 0x61: rd              : 0x00 
RX_AUDP_STAT
    24.824934: p 4998: a 0x68: wr reg 0x34 (A) : 
    24.825152: p 4999: a 0x69: rd              : 0x00 
Pixel Clock Timing (l)
    24.825698: p 5000: a 0x60: wr reg 0x6e (A) : 
    24.825916: p 5001: a 0x61: rd              : 0x73 0x01 
Video Channel PCLK Count Base
    24.826562: p 5008: a 0x60: wr reg 0x69 (A) : 0x80 
Pixel Clock Timing (l)
    24.827205: p 5009: a 0x60: wr reg 0x6e (A) : 
    24.827423: p 5010: a 0x61: rd              : 0xbb 0x00 
Pixel Clock Timing (l)
    24.828067: p 5011: a 0x60: wr reg 0x6e (A) : 
    24.828451: p 5012: a 0x61: rd              : 0xbb 0x00 
Video Channel PCLK Count Base
    24.829102: p 5013: a 0x60: wr reg 0x69 (A) : 0xff 
Interrupt Status
    24.829829: p 5014: a 0x60: wr reg 0x70 (A) : 
    24.830047: p 5015: a 0x61: rd              : 0x00 
Interrupt Status
    24.836890: p 5016: a 0x60: wr reg 0x70 (A) : 
    24.837108: p 5017: a 0x61: rd              : 0x00 
RX_AUDP_STAT
    24.837674: p 5120: a 0x68: wr reg 0x34 (A) : 
    24.837892: p 5121: a 0x69: rd              : 0x00 
RX_AUDP_STAT
    24.852957: p 5122: a 0x68: wr reg 0x34 (A) : 
    24.853175: p 5123: a 0x69: rd              : 0x00 
Pixel Clock Timing (l)
    24.853721: p 5124: a 0x60: wr reg 0x6e (A) : 
    24.853939: p 5125: a 0x61: rd              : 0x74 0x01 
Video Channel PCLK Count Base
    24.854588: p 5126: a 0x60: wr reg 0x69 (A) : 0x80 
Pixel Clock Timing (l)
    24.855231: p 5127: a 0x60: wr reg 0x6e (A) : 
    24.855449: p 5128: a 0x61: rd              : 0xbb 0x00 
Pixel Clock Timing (l)
    24.856093: p 5129: a 0x60: wr reg 0x6e (A) : 
    24.856453: p 5136: a 0x61: rd              : 0xbb 0x00 
Video Channel PCLK Count Base
    24.857104: p 5137: a 0x60: wr reg 0x69 (A) : 0xff 
Interrupt Status
    24.857833: p 5138: a 0x60: wr reg 0x70 (A) : 
    24.858051: p 5139: a 0x61: rd              : 0x00 
Interrupt Status
    24.864892: p 5140: a 0x60: wr reg 0x70 (A) : 
    24.865110: p 5141: a 0x61: rd              : 0x00 
Deep Color Status
    24.865664: p 5142: a 0x60: wr reg 0x61 (A) : 
    24.865882: p 5143: a 0x61: rd              : 0x00 
RX_AUDP_STAT
    24.867795: p 5144: a 0x68: wr reg 0x34 (A) : 
    24.868013: p 5145: a 0x69: rd              : 0x00 
RX_AUDP_STAT
    24.876931: p 5152: a 0x68: wr reg 0x34 (A) : 
    24.877149: p 5153: a 0x69: rd              : 0x00 
Pixel Clock Timing (l)
    24.877695: p 5154: a 0x60: wr reg 0x6e (A) : 
    24.877913: p 5155: a 0x61: rd              : 0x74 0x01 
Video Channel PCLK Count Base
    24.878559: p 5156: a 0x60: wr reg 0x69 (A) : 0x80 
Pixel Clock Timing (l)
    24.879202: p 5157: a 0x60: wr reg 0x6e (A) : 
    24.879420: p 5158: a 0x61: rd              : 0xbb 0x00 
Pixel Clock Timing (l)
    24.880067: p 5159: a 0x60: wr reg 0x6e (A) : 
    24.880450: p 5160: a 0x61: rd              : 0xba 0x00 
Video Channel PCLK Count Base
    24.881103: p 5161: a 0x60: wr reg 0x69 (A) : 0xff 
Interrupt Status
    24.881830: p 5168: a 0x60: wr reg 0x70 (A) : 
    24.882048: p 5169: a 0x61: rd              : 0x00 
RX_AUDP_STAT
    24.896931: p 5170: a 0x68: wr reg 0x34 (A) : 
    24.897149: p 5171: a 0x69: rd              : 0x00 
Pixel Clock Timing (l)
    24.897695: p 5172: a 0x60: wr reg 0x6e (A) : 
    24.897913: p 5173: a 0x61: rd              : 0x74 0x01 
Video Channel PCLK Count Base
    24.898557: p 5174: a 0x60: wr reg 0x69 (A) : 0x80 
Pixel Clock Timing (l)
    24.899200: p 5175: a 0x60: wr reg 0x6e (A) : 
    24.899418: p 5176: a 0x61: rd              : 0xba 0x00 
Pixel Clock Timing (l)
    24.900063: p 5177: a 0x60: wr reg 0x6e (A) : 
    24.900449: p 5184: a 0x61: rd              : 0xbb 0x00 
Video Channel PCLK Count Base
    24.901101: p 5185: a 0x60: wr reg 0x69 (A) : 0xff 
Interrupt Status
    24.901829: p 5186: a 0x60: wr reg 0x70 (A) : 
    24.902047: p 5187: a 0x61: rd              : 0x00 
Interrupt Status
    24.907548: p 5188: a 0x60: wr reg 0x70 (A) : 
    24.907832: p 5189: a 0x61: rd              : 0x00 
RX_AUDP_STAT
    24.908857: p 5190: a 0x68: wr reg 0x34 (A) : 
    24.909076: p 5191: a 0x69: rd              : 0x00 
RX_AUDP_STAT
    24.916927: p 5192: a 0x68: wr reg 0x34 (A) : 
    24.917145: p 5193: a 0x69: rd              : 0x00 
Pixel Clock Timing (l)
    24.917689: p 5200: a 0x60: wr reg 0x6e (A) : 
    24.917907: p 5201: a 0x61: rd              : 0x73 0x01 
Video Channel PCLK Count Base
