Time [s],Packet ID,Address,Data,Read/Write,ACK/NAK
0.004531000000000,0,0xC0,0xA6,Write,ACK
0.004750500000000,1,0xC1,0x80,Read,ACK
0.004857500000000,1,0xC1,0x00,Read,NAK
0.021042500000000,2,0x72,0x3D,Write,ACK
0.021262500000000,3,0x73,0x0C,Read,ACK
0.021369500000000,3,0x73,0x00,Read,NAK
0.022327500000000,4,0x72,0x3D,Write,ACK
0.022549000000000,5,0x73,0x0C,Read,NAK
0.036424500000000,6,0x72,0x3D,Write,ACK
0.036644000000000,7,0x73,0x0C,Read,NAK
0.060271000000000,8,0x72,0x3D,Write,ACK
0.060491000000000,9,0x73,0x0C,Read,ACK
0.060595500000000,9,0x73,0x00,Read,NAK
0.061271500000000,10,0x72,0x3D,Write,ACK
0.061491500000000,11,0x73,0x0C,Read,NAK
0.097049500000000,12,0x72,0x3D,Write,ACK
0.097269500000000,13,0x73,0x0C,Read,ACK
0.097376000000000,13,0x73,0x00,Read,NAK
0.098326000000000,14,0x72,0x3D,Write,ACK
0.098548000000000,15,0x73,0x0C,Read,NAK
0.099190000000000,16,0x72,0x3D,Write,ACK
0.099411500000000,17,0x73,0x0C,Read,NAK
0.116562500000000,18,0xC0,0xA6,Write,ACK
0.116782500000000,19,0xC1,0x80,Read,ACK
0.116887500000000,19,0xC1,0x00,Read,NAK
0.133034500000000,20,0x72,0x3D,Write,ACK
0.133254500000000,21,0x73,0x0C,Read,ACK
0.133359500000000,21,0x73,0x00,Read,NAK
0.134305000000000,22,0x72,0x3D,Write,ACK
0.134525000000000,23,0x73,0x0C,Read,NAK
0.148410000000000,24,0x72,0x3D,Write,ACK
0.148630000000000,25,0x73,0x0C,Read,NAK
0.172260500000000,26,0x72,0x3D,Write,ACK
0.172480500000000,27,0x73,0x0C,Read,ACK
0.172587500000000,27,0x73,0x00,Read,NAK
0.173261500000000,28,0x72,0x3D,Write,ACK
0.173481500000000,29,0x73,0x0C,Read,NAK
0.209033500000000,30,0x72,0x3D,Write,ACK
0.209253000000000,31,0x73,0x0C,Read,ACK
0.209360000000000,31,0x73,0x00,Read,NAK
0.210316000000000,32,0x72,0x3D,Write,ACK
0.210536000000000,33,0x73,0x0C,Read,NAK
0.211177500000000,34,0x72,0x3D,Write,ACK
0.211397500000000,35,0x73,0x0C,Read,NAK
0.228514500000000,36,0xC0,0xA6,Write,ACK
0.228734500000000,37,0xC1,0x80,Read,ACK
0.228841500000000,37,0xC1,0x00,Read,NAK
0.245028500000000,38,0x72,0x3D,Write,ACK
0.245248500000000,39,0x73,0x0C,Read,ACK
0.245355000000000,39,0x73,0x00,Read,NAK
0.246313000000000,40,0x72,0x3D,Write,ACK
0.246535000000000,41,0x73,0x0C,Read,NAK
0.260412000000000,42,0x72,0x3D,Write,ACK
0.260632000000000,43,0x73,0x0C,Read,NAK
0.284260500000000,44,0x72,0x3D,Write,ACK
0.284480500000000,45,0x73,0x0C,Read,ACK
0.284585500000000,45,0x73,0x00,Read,NAK
0.285261000000000,46,0x72,0x3D,Write,ACK
0.285483000000000,47,0x73,0x0C,Read,NAK
0.321033000000000,48,0x72,0x3D,Write,ACK
0.321253000000000,49,0x73,0x0C,Read,ACK
0.321360000000000,49,0x73,0x00,Read,NAK
0.322310000000000,50,0x72,0x3D,Write,ACK
0.322531500000000,51,0x73,0x0C,Read,NAK
0.323173500000000,52,0x72,0x3D,Write,ACK
0.323395500000000,53,0x73,0x0C,Read,NAK
0.340510500000000,54,0xC0,0xA6,Write,ACK
0.340730500000000,55,0xC1,0x80,Read,ACK
0.340837000000000,55,0xC1,0x00,Read,NAK
0.357028000000000,56,0x72,0x3D,Write,ACK
0.357248000000000,57,0x73,0x0C,Read,ACK
0.357355000000000,57,0x73,0x00,Read,NAK
0.358311000000000,58,0x72,0x3D,Write,ACK
0.358532500000000,59,0x73,0x0C,Read,NAK
0.372406000000000,60,0x72,0x3D,Write,ACK
0.372626000000000,61,0x73,0x0C,Read,NAK
0.396254500000000,62,0x72,0x3D,Write,ACK
0.396474500000000,63,0x73,0x0C,Read,ACK
0.396581000000000,63,0x73,0x00,Read,NAK
0.397257000000000,64,0x72,0x3D,Write,ACK
0.397479000000000,65,0x73,0x0C,Read,NAK
0.433031000000000,66,0x72,0x3D,Write,ACK
0.433251000000000,67,0x73,0x0C,Read,ACK
0.433358000000000,67,0x73,0x00,Read,NAK
0.434311500000000,68,0x72,0x3D,Write,ACK
0.434531500000000,69,0x73,0x0C,Read,NAK
0.435173500000000,70,0x72,0x3D,Write,ACK
0.435395500000000,71,0x73,0x0C,Read,NAK
0.452506500000000,72,0xC0,0xA6,Write,ACK
0.452726000000000,73,0xC1,0x80,Read,ACK
0.452831000000000,73,0xC1,0x00,Read,NAK
0.469016000000000,74,0x72,0x3D,Write,ACK
0.469236000000000,75,0x73,0x0C,Read,ACK
0.469341000000000,75,0x73,0x00,Read,NAK
0.470300500000000,76,0x72,0x3D,Write,ACK
0.470522500000000,77,0x73,0x0C,Read,NAK
0.484400000000000,78,0x72,0x3D,Write,ACK
0.484621500000000,79,0x73,0x0C,Read,NAK
0.508248500000000,80,0x72,0x3D,Write,ACK
0.508468000000000,81,0x73,0x0C,Read,ACK
0.508575000000000,81,0x73,0x00,Read,NAK
0.509251000000000,82,0x72,0x3D,Write,ACK
0.509473000000000,83,0x73,0x0C,Read,NAK
0.541037000000000,84,0x72,0x3D,Write,ACK
0.541257000000000,85,0x73,0x0C,Read,ACK
0.541364000000000,85,0x73,0x00,Read,NAK
0.542319500000000,86,0x72,0x3D,Write,ACK
0.542539500000000,87,0x73,0x0C,Read,NAK
0.543183500000000,88,0x72,0x3D,Write,ACK
0.543405500000000,89,0x73,0x0C,Read,NAK
0.564502000000000,90,0xC0,0xA6,Write,ACK
0.564722000000000,91,0xC1,0x80,Read,ACK
0.564829000000000,91,0xC1,0x00,Read,NAK
0.581016000000000,92,0x72,0x3D,Write,ACK
0.581236000000000,93,0x73,0x0C,Read,ACK
0.581342500000000,93,0x73,0x00,Read,NAK
0.582302500000000,94,0x72,0x3D,Write,ACK
0.582522500000000,95,0x73,0x0C,Read,NAK
0.596393500000000,96,0x72,0x3D,Write,ACK
0.596615500000000,97,0x73,0x0C,Read,NAK
0.620240000000000,98,0x72,0x3D,Write,ACK
0.620460000000000,99,0x73,0x0C,Read,ACK
0.620567000000000,99,0x73,0x00,Read,NAK
0.621241000000000,100,0x72,0x3D,Write,ACK
0.621460500000000,101,0x73,0x0C,Read,NAK
0.657016500000000,102,0x72,0x3D,Write,ACK
0.657236500000000,103,0x73,0x0C,Read,ACK
0.657341500000000,103,0x73,0x00,Read,NAK
0.658295500000000,104,0x72,0x3D,Write,ACK
0.658515000000000,105,0x73,0x0C,Read,NAK
0.659157000000000,106,0x72,0x3D,Write,ACK
0.659377000000000,107,0x73,0x0C,Read,NAK
0.676494000000000,108,0xC0,0xA6,Write,ACK
0.676714000000000,109,0xC1,0x80,Read,ACK
0.676818500000000,109,0xC1,0x00,Read,NAK
0.693010000000000,110,0x72,0x3D,Write,ACK
0.693229500000000,111,0x73,0x0C,Read,ACK
0.693336500000000,111,0x73,0x00,Read,NAK
0.694298500000000,112,0x72,0x3D,Write,ACK
0.694520500000000,113,0x73,0x0C,Read,NAK
0.708389500000000,114,0x72,0x3D,Write,ACK
0.708611500000000,115,0x73,0x0C,Read,NAK
0.732234000000000,116,0x72,0x3D,Write,ACK
0.732454000000000,117,0x73,0x0C,Read,ACK
0.732561000000000,117,0x73,0x00,Read,NAK
0.733236500000000,118,0x72,0x3D,Write,ACK
0.733456500000000,119,0x73,0x0C,Read,NAK
0.769004500000000,120,0x72,0x3D,Write,ACK
0.769224500000000,121,0x73,0x0C,Read,ACK
0.769331500000000,121,0x73,0x00,Read,NAK
0.770287000000000,122,0x72,0x3D,Write,ACK
0.770507000000000,123,0x73,0x0C,Read,NAK
0.771151000000000,124,0x72,0x3D,Write,ACK
0.771373000000000,125,0x73,0x0C,Read,NAK
0.788488000000000,126,0xC0,0xA6,Write,ACK
0.788707500000000,127,0xC1,0x80,Read,ACK
0.788812500000000,127,0xC1,0x00,Read,NAK
0.805001500000000,128,0x72,0x3D,Write,ACK
0.805221500000000,129,0x73,0x0C,Read,ACK
0.805326500000000,129,0x73,0x00,Read,NAK
0.806286500000000,130,0x72,0x3D,Write,ACK
0.806508000000000,131,0x73,0x0C,Read,NAK
0.820375500000000,132,0x72,0x3D,Write,ACK
0.820597000000000,133,0x73,0x0C,Read,NAK
0.844228000000000,134,0x72,0x3D,Write,ACK
0.844447500000000,135,0x73,0x0C,Read,ACK
0.844554500000000,135,0x73,0x00,Read,NAK
0.845230500000000,136,0x72,0x3D,Write,ACK
0.845452500000000,137,0x73,0x0C,Read,NAK
0.880998500000000,138,0x72,0x3D,Write,ACK
0.881218500000000,139,0x73,0x0C,Read,ACK
0.881323000000000,139,0x73,0x00,Read,NAK
0.882277000000000,140,0x72,0x3D,Write,ACK
0.882497000000000,141,0x73,0x0C,Read,NAK
0.883141000000000,142,0x72,0x3D,Write,ACK
0.883360500000000,143,0x73,0x0C,Read,NAK
0.900477500000000,144,0xC0,0xA6,Write,ACK
0.900697500000000,145,0xC1,0x80,Read,ACK
0.900802500000000,145,0xC1,0x00,Read,NAK
0.916985500000000,146,0x72,0x3D,Write,ACK
0.917205500000000,147,0x73,0x0C,Read,ACK
0.917312000000000,147,0x73,0x00,Read,NAK
0.918236000000000,148,0x72,0x3D,Write,ACK
0.918458000000000,149,0x73,0x0C,Read,NAK
0.932377000000000,150,0x72,0x3D,Write,ACK
0.932599000000000,151,0x73,0x0C,Read,NAK
0.956211500000000,152,0x72,0x3D,Write,ACK
0.956431500000000,153,0x73,0x0C,Read,ACK
0.956538500000000,153,0x73,0x00,Read,NAK
0.957210500000000,154,0x72,0x3D,Write,ACK
0.957430000000000,155,0x73,0x0C,Read,NAK
0.992984000000000,156,0x72,0x3D,Write,ACK
0.993204000000000,157,0x73,0x0C,Read,ACK
0.993309000000000,157,0x73,0x00,Read,NAK
0.994235000000000,158,0x72,0x3D,Write,ACK
0.994456500000000,159,0x73,0x0C,Read,NAK
0.995096500000000,160,0x72,0x3D,Write,ACK
0.995318500000000,161,0x73,0x0C,Read,NAK
1.012477500000000,162,0xC0,0xA6,Write,ACK
1.012697500000000,163,0xC1,0x80,Read,ACK
1.012802000000000,163,0xC1,0x00,Read,NAK
1.028997500000000,164,0x72,0x3D,Write,ACK
1.029217000000000,165,0x73,0x0C,Read,ACK
1.029324000000000,165,0x73,0x00,Read,NAK
1.030284000000000,166,0x72,0x3D,Write,ACK
1.030506000000000,167,0x73,0x0C,Read,NAK
1.044367000000000,168,0x72,0x3D,Write,ACK
1.044587000000000,169,0x73,0x0C,Read,NAK
1.068217500000000,170,0x72,0x3D,Write,ACK
1.068437500000000,171,0x73,0x0C,Read,ACK
1.068542500000000,171,0x73,0x00,Read,NAK
1.069216000000000,172,0x72,0x3D,Write,ACK
1.069438000000000,173,0x73,0x0C,Read,NAK
1.104984000000000,174,0x72,0x3D,Write,ACK
1.105204000000000,175,0x73,0x0C,Read,ACK
1.105309000000000,175,0x73,0x00,Read,NAK
1.106260500000000,176,0x72,0x3D,Write,ACK
1.106480500000000,177,0x73,0x0C,Read,NAK
1.107122500000000,178,0x72,0x3D,Write,ACK
1.107344500000000,179,0x73,0x0C,Read,NAK
1.124465500000000,180,0xC0,0xA6,Write,ACK
1.124685000000000,181,0xC1,0x80,Read,ACK
1.124792000000000,181,0xC1,0x00,Read,NAK
1.140989000000000,182,0x72,0x3D,Write,ACK
1.141209000000000,183,0x73,0x0C,Read,ACK
1.141316000000000,183,0x73,0x00,Read,NAK
1.142268000000000,184,0x72,0x3D,Write,ACK
1.142489500000000,185,0x73,0x0C,Read,NAK
1.156367000000000,186,0x72,0x3D,Write,ACK
1.156586500000000,187,0x73,0x0C,Read,NAK
1.180211500000000,188,0x72,0x3D,Write,ACK
1.180431500000000,189,0x73,0x0C,Read,ACK
1.180538000000000,189,0x73,0x00,Read,NAK
1.181214000000000,190,0x72,0x3D,Write,ACK
1.181434000000000,191,0x73,0x0C,Read,NAK
1.216984000000000,192,0x72,0x3D,Write,ACK
1.217204000000000,193,0x73,0x0C,Read,ACK
1.217310500000000,193,0x73,0x00,Read,NAK
1.218264500000000,194,0x72,0x3D,Write,ACK
1.218486500000000,195,0x73,0x0C,Read,NAK
1.219128500000000,196,0x72,0x3D,Write,ACK
1.219348000000000,197,0x73,0x0C,Read,NAK
1.236455000000000,198,0xC0,0xA6,Write,ACK
1.236675000000000,199,0xC1,0x80,Read,ACK
1.236782000000000,199,0xC1,0x00,Read,NAK
1.252979000000000,200,0x72,0x3D,Write,ACK
1.253199000000000,201,0x73,0x0C,Read,ACK
1.253304000000000,201,0x73,0x00,Read,NAK
1.254261500000000,202,0x72,0x3D,Write,ACK
1.254483500000000,203,0x73,0x0C,Read,NAK
1.268356500000000,204,0x72,0x3D,Write,ACK
1.268578500000000,205,0x73,0x0C,Read,NAK
1.292199000000000,206,0x72,0x3D,Write,ACK
1.292419000000000,207,0x73,0x0C,Read,ACK
1.292526000000000,207,0x73,0x00,Read,NAK
1.293202000000000,208,0x72,0x3D,Write,ACK
1.293422000000000,209,0x73,0x0C,Read,NAK
1.328984000000000,210,0x72,0x3D,Write,ACK
1.329203500000000,211,0x73,0x0C,Read,ACK
1.329308500000000,211,0x73,0x00,Read,NAK
1.330260500000000,212,0x72,0x3D,Write,ACK
1.330482500000000,213,0x73,0x0C,Read,NAK
1.331122000000000,214,0x72,0x3D,Write,ACK
1.331344000000000,215,0x73,0x0C,Read,NAK
1.348451000000000,216,0xC0,0xA6,Write,ACK
1.348671000000000,217,0xC1,0x80,Read,ACK
1.348776000000000,217,0xC1,0x00,Read,NAK
1.364979000000000,218,0x72,0x3D,Write,ACK
1.365199000000000,219,0x73,0x0C,Read,ACK
1.365303500000000,219,0x73,0x00,Read,NAK
1.366257500000000,220,0x72,0x3D,Write,ACK
1.366479500000000,221,0x73,0x0C,Read,NAK
1.380352500000000,222,0x72,0x3D,Write,ACK
1.380574500000000,223,0x73,0x0C,Read,NAK
1.404201000000000,224,0x72,0x3D,Write,ACK
1.404421000000000,225,0x73,0x0C,Read,ACK
1.404528000000000,225,0x73,0x00,Read,NAK
1.405204000000000,226,0x72,0x3D,Write,ACK
1.405425500000000,227,0x73,0x0C,Read,NAK
1.440963500000000,228,0x72,0x3D,Write,ACK
1.441183500000000,229,0x73,0x0C,Read,ACK
1.441288500000000,229,0x73,0x00,Read,NAK
1.442244500000000,230,0x72,0x3D,Write,ACK
1.442466000000000,231,0x73,0x0C,Read,NAK
1.443108000000000,232,0x72,0x3D,Write,ACK
1.443328000000000,233,0x73,0x0C,Read,NAK
1.460447000000000,234,0xC0,0xA6,Write,ACK
1.460667000000000,235,0xC1,0x80,Read,ACK
1.460772000000000,235,0xC1,0x00,Read,NAK
1.476963000000000,236,0x72,0x3D,Write,ACK
1.477182500000000,237,0x73,0x0C,Read,ACK
1.477289500000000,237,0x73,0x00,Read,NAK
1.478247500000000,238,0x72,0x3D,Write,ACK
1.478469500000000,239,0x73,0x0C,Read,NAK
1.492344500000000,240,0x72,0x3D,Write,ACK
1.492566500000000,241,0x73,0x0C,Read,NAK
1.516193000000000,242,0x72,0x3D,Write,ACK
1.516413000000000,243,0x73,0x0C,Read,ACK
1.516520000000000,243,0x73,0x00,Read,NAK
1.517193500000000,244,0x72,0x3D,Write,ACK
1.517413500000000,245,0x73,0x0C,Read,NAK
1.552967500000000,246,0x72,0x3D,Write,ACK
1.553187500000000,247,0x73,0x0C,Read,ACK
1.553294500000000,247,0x73,0x00,Read,NAK
1.554250000000000,248,0x72,0x3D,Write,ACK
1.554472000000000,249,0x73,0x0C,Read,NAK
1.555114000000000,250,0x72,0x3D,Write,ACK
1.555334000000000,251,0x73,0x0C,Read,NAK
1.572449000000000,252,0xC0,0xA6,Write,ACK
1.572669000000000,253,0xC1,0x80,Read,ACK
1.572775500000000,253,0xC1,0x00,Read,NAK
1.588968500000000,254,0x72,0x3D,Write,ACK
1.589188500000000,255,0x73,0x0C,Read,ACK
1.589293500000000,255,0x73,0x00,Read,NAK
1.590249500000000,256,0x72,0x3D,Write,ACK
1.590469000000000,257,0x73,0x0C,Read,NAK
1.604340500000000,258,0x72,0x3D,Write,ACK
1.604560500000000,259,0x73,0x0C,Read,NAK
1.628187000000000,260,0x72,0x3D,Write,ACK
1.628407000000000,261,0x73,0x0C,Read,ACK
1.628511500000000,261,0x73,0x00,Read,NAK
1.629187500000000,262,0x72,0x3D,Write,ACK
1.629407500000000,263,0x73,0x0C,Read,NAK
1.664963500000000,264,0x72,0x3D,Write,ACK
1.665183500000000,265,0x73,0x0C,Read,ACK
1.665290500000000,265,0x73,0x00,Read,NAK
1.666244000000000,266,0x72,0x3D,Write,ACK
1.666466000000000,267,0x73,0x0C,Read,NAK
1.667108000000000,268,0x72,0x3D,Write,ACK
1.667330000000000,269,0x73,0x0C,Read,NAK
1.684436500000000,270,0xC0,0xA6,Write,ACK
1.684656500000000,271,0xC1,0x80,Read,ACK
1.684763500000000,271,0xC1,0x00,Read,NAK
1.700958500000000,272,0x72,0x3D,Write,ACK
1.701178500000000,273,0x73,0x0C,Read,ACK
1.701283500000000,273,0x73,0x00,Read,NAK
1.702245000000000,274,0x72,0x3D,Write,ACK
1.702467000000000,275,0x73,0x0C,Read,NAK
1.716340500000000,276,0x72,0x3D,Write,ACK
1.716560000000000,277,0x73,0x0C,Read,NAK
1.740179000000000,278,0x72,0x3D,Write,ACK
1.740398500000000,279,0x73,0x0C,Read,ACK
1.740505500000000,279,0x73,0x00,Read,NAK
1.741183500000000,280,0x72,0x3D,Write,ACK
1.741403500000000,281,0x73,0x0C,Read,NAK
1.772961500000000,282,0x72,0x3D,Write,ACK
1.773181500000000,283,0x73,0x0C,Read,ACK
1.773288500000000,283,0x73,0x00,Read,NAK
1.774246000000000,284,0x72,0x3D,Write,ACK
1.774468000000000,285,0x73,0x0C,Read,NAK
1.775110000000000,286,0x72,0x3D,Write,ACK
1.775330000000000,287,0x73,0x0C,Read,NAK
1.796434500000000,288,0xC0,0xA6,Write,ACK
1.796654500000000,289,0xC1,0x80,Read,ACK
1.796761500000000,289,0xC1,0x00,Read,NAK
1.812954500000000,290,0x72,0x3D,Write,ACK
1.813174500000000,291,0x73,0x0C,Read,ACK
1.813281500000000,291,0x73,0x00,Read,NAK
1.814239000000000,292,0x72,0x3D,Write,ACK
1.814459000000000,293,0x73,0x0C,Read,NAK
1.828330000000000,294,0x72,0x3D,Write,ACK
1.828550000000000,295,0x73,0x0C,Read,NAK
1.852168500000000,296,0x72,0x3D,Write,ACK
1.852388500000000,297,0x73,0x0C,Read,ACK
1.852495500000000,297,0x73,0x00,Read,NAK
1.853169500000000,298,0x72,0x3D,Write,ACK
1.853391000000000,299,0x73,0x0C,Read,NAK
1.888945500000000,300,0x72,0x3D,Write,ACK
1.889165000000000,301,0x73,0x0C,Read,ACK
1.889272000000000,301,0x73,0x00,Read,NAK
1.890230000000000,302,0x72,0x3D,Write,ACK
1.890450000000000,303,0x73,0x0C,Read,NAK
1.891087500000000,304,0x72,0x3D,Write,ACK
1.891309500000000,305,0x73,0x0C,Read,NAK
1.908424500000000,306,0xC0,0xA6,Write,ACK
1.908644500000000,307,0xC1,0x80,Read,ACK
1.908751500000000,307,0xC1,0x00,Read,NAK
1.924944500000000,308,0x72,0x3D,Write,ACK
1.925164500000000,309,0x73,0x0C,Read,ACK
1.925269000000000,309,0x73,0x00,Read,NAK
1.926225000000000,310,0x72,0x3D,Write,ACK
1.926447000000000,311,0x73,0x0C,Read,NAK
1.940320000000000,312,0x72,0x3D,Write,ACK
1.940540000000000,313,0x73,0x0C,Read,NAK
1.964168500000000,314,0x72,0x3D,Write,ACK
1.964388500000000,315,0x73,0x0C,Read,ACK
1.964493500000000,315,0x73,0x00,Read,NAK
1.965167500000000,316,0x72,0x3D,Write,ACK
1.965389000000000,317,0x73,0x0C,Read,NAK
2.000935000000000,318,0x72,0x3D,Write,ACK
2.001155000000000,319,0x73,0x0C,Read,ACK
2.001260000000000,319,0x73,0x00,Read,NAK
2.002214000000000,320,0x72,0x3D,Write,ACK
2.002433500000000,321,0x73,0x0C,Read,NAK
2.003073500000000,322,0x72,0x3D,Write,ACK
2.003295500000000,323,0x73,0x0C,Read,NAK
2.020424500000000,324,0xC0,0xA6,Write,ACK
2.020644500000000,325,0xC1,0x80,Read,ACK
2.020751500000000,325,0xC1,0x00,Read,NAK
2.036942500000000,326,0x72,0x3D,Write,ACK
2.037162000000000,327,0x73,0x0C,Read,ACK
2.037269000000000,327,0x73,0x00,Read,NAK
2.038227000000000,328,0x72,0x3D,Write,ACK
2.038447000000000,329,0x73,0x0C,Read,NAK
2.052324000000000,330,0x72,0x3D,Write,ACK
2.052546000000000,331,0x73,0x0C,Read,NAK
2.076158500000000,332,0x72,0x3D,Write,ACK
2.076378500000000,333,0x73,0x0C,Read,ACK
2.076485500000000,333,0x73,0x00,Read,NAK
2.077159000000000,334,0x72,0x3D,Write,ACK
2.077379000000000,335,0x73,0x0C,Read,NAK
2.112941000000000,336,0x72,0x3D,Write,ACK
2.113161000000000,337,0x73,0x0C,Read,ACK
2.113268000000000,337,0x73,0x00,Read,NAK
2.114265500000000,338,0x72,0x3D,Write,ACK
2.114485500000000,339,0x73,0x0C,Read,NAK
2.115123500000000,340,0x72,0x3D,Write,ACK
2.115343500000000,341,0x73,0x0C,Read,NAK
2.132696500000000,342,0xC0,0xA6,Write,ACK
2.132916500000000,343,0xC1,0x80,Read,ACK
2.133021000000000,343,0xC1,0x00,Read,NAK
2.148936000000000,344,0x72,0x3D,Write,ACK
2.149156000000000,345,0x73,0x0C,Read,ACK
2.149263000000000,345,0x73,0x00,Read,NAK
2.150219000000000,346,0x72,0x3D,Write,ACK
2.150440500000000,347,0x73,0x0C,Read,NAK
2.164312000000000,348,0x72,0x3D,Write,ACK
2.164534000000000,349,0x73,0x0C,Read,NAK
2.188164500000000,350,0x72,0x3D,Write,ACK
2.188384500000000,351,0x73,0x0C,Read,ACK
2.188491000000000,351,0x73,0x00,Read,NAK
2.189167000000000,352,0x72,0x3D,Write,ACK
2.189389000000000,353,0x73,0x0C,Read,NAK
2.224933000000000,354,0x72,0x3D,Write,ACK
2.225153000000000,355,0x73,0x0C,Read,ACK
2.225260000000000,355,0x73,0x00,Read,NAK
2.226211500000000,356,0x72,0x3D,Write,ACK
2.226431500000000,357,0x73,0x0C,Read,NAK
2.227073500000000,358,0x72,0x3D,Write,ACK
2.227293500000000,359,0x73,0x0C,Read,NAK
2.244402500000000,360,0xC0,0xA6,Write,ACK
2.244622000000000,361,0xC1,0x80,Read,ACK
2.244729000000000,361,0xC1,0x00,Read,NAK
2.260920000000000,362,0x72,0x3D,Write,ACK
2.261140000000000,363,0x73,0x0C,Read,ACK
2.261247000000000,363,0x73,0x00,Read,NAK
2.262205000000000,364,0x72,0x3D,Write,ACK
2.262426500000000,365,0x73,0x0C,Read,NAK
2.276306000000000,366,0x72,0x3D,Write,ACK
2.276525500000000,367,0x73,0x0C,Read,NAK
2.300146500000000,368,0x72,0x3D,Write,ACK
2.300366000000000,369,0x73,0x0C,Read,ACK
2.300473000000000,369,0x73,0x00,Read,NAK
2.301147000000000,370,0x72,0x3D,Write,ACK
2.301369000000000,371,0x73,0x0C,Read,NAK
2.336927000000000,372,0x72,0x3D,Write,ACK
2.337147000000000,373,0x73,0x0C,Read,ACK
2.337253500000000,373,0x73,0x00,Read,NAK
2.338205500000000,374,0x72,0x3D,Write,ACK
2.338425500000000,375,0x73,0x0C,Read,NAK
2.339067500000000,376,0x72,0x3D,Write,ACK
2.339287000000000,377,0x73,0x0C,Read,NAK
2.356402000000000,378,0xC0,0xA6,Write,ACK
2.356622000000000,379,0xC1,0x80,Read,ACK
2.356727000000000,379,0xC1,0x00,Read,NAK
2.372914000000000,380,0x72,0x3D,Write,ACK
2.373134000000000,381,0x73,0x0C,Read,ACK
2.373241000000000,381,0x73,0x00,Read,NAK
2.374200500000000,382,0x72,0x3D,Write,ACK
2.374422500000000,383,0x73,0x0C,Read,NAK
2.388303500000000,384,0x72,0x3D,Write,ACK
2.388523500000000,385,0x73,0x0C,Read,NAK
2.412140000000000,386,0x72,0x3D,Write,ACK
2.412360000000000,387,0x73,0x0C,Read,ACK
2.412465000000000,387,0x73,0x00,Read,NAK
2.413139000000000,388,0x72,0x3D,Write,ACK
2.413358500000000,389,0x73,0x0C,Read,NAK
2.448922500000000,390,0x72,0x3D,Write,ACK
2.449142500000000,391,0x73,0x0C,Read,ACK
2.449249500000000,391,0x73,0x00,Read,NAK
2.450203500000000,392,0x72,0x3D,Write,ACK
2.450425500000000,393,0x73,0x0C,Read,NAK
2.451067000000000,394,0x72,0x3D,Write,ACK
2.451289000000000,395,0x73,0x0C,Read,NAK
2.468392000000000,396,0xC0,0xA6,Write,ACK
