Time [s],Packet ID,Address,Data,Read/Write,ACK/NAK
0.004531000000000,0,0xC0,0xA6,Write,ACK
0.004750500000000,1,0xC1,0x80,Read,ACK
0.004857500000000,1,0xC1,0x00,Read,NAK
0.021042500000000,2,0x72,0x3D,Write,ACK
0.021262500000000,3,0x73,0x0C,Read,ACK
0.021369500000000,3,0x73,0x00,Read,NAK
0.022327500000000,4,0x72,0x3D,Write,ACK
0.022549000000000,5,0x73,0x0C,Read,NAK
0.036424500000000,6,0x72,0x3D,Write,ACK
0.036644000000000,7,0x73,0x0C,Read,NAK
0.060271000000000,8,0x72,0x3D,Write,ACK
0.060491000000000,9,0x73,0x0C,Read,ACK
0.060595500000000,9,0x73,0x00,Read,NAK
0.061271500000000,10,0x72,0x3D,Write,ACK
0.061491500000000,11,0x73,0x0C,Read,NAK
0.097049500000000,12,0x72,0x3D,Write,ACK
0.097269500000000,13,0x73,0x0C,Read,ACK
0.097376000000000,13,0x73,0x00,Read,NAK
0.098326000000000,14,0x72,0x3D,Write,ACK
0.098548000000000,15,0x73,0x0C,Read,NAK
0.099190000000000,16,0x72,0x3D,Write,ACK
0.099411500000000,17,0x73,0x0C,Read,NAK
0.116562500000000,18,0xC0,0xA6,Write,ACK
0.116782500000000,19,0xC1,0x80,Read,ACK
0.116887500000000,19,0xC1,0x00,Read,NAK
0.133034500000000,20,0x72,0x3D,Write,ACK
0.133254500000000,21,0x73,0x0C,Read,ACK
0.133359500000000,21,0x73,0x00,Read,NAK
0.134305000000000,22,0x72,0x3D,Write,ACK
0.134525000000000,23,0x73,0x0C,Read,NAK
0.148410000000000,24,0x72,0x3D,Write,ACK
0.148630000000000,25,0x73,0x0C,Read,NAK
0.172260500000000,26,0x72,0x3D,Write,ACK
0.172480500000000,27,0x73,0x0C,Read,ACK
0.172587500000000,27,0x73,0x00,Read,NAK
0.173261500000000,28,0x72,0x3D,Write,ACK
0.173481500000000,29,0x73,0x0C,Read,NAK
0.209033500000000,30,0x72,0x3D,Write,ACK
0.209253000000000,31,0x73,0x0C,Read,ACK
0.209360000000000,31,0x73,0x00,Read,NAK
0.210316000000000,32,0x72,0x3D,Write,ACK
0.210536000000000,33,0x73,0x0C,Read,NAK
0.211177500000000,34,0x72,0x3D,Write,ACK
0.211397500000000,35,0x73,0x0C,Read,NAK
0.228514500000000,36,0xC0,0xA6,Write,ACK
0.228734500000000,37,0xC1,0x80,Read,ACK
0.228841500000000,37,0xC1,0x00,Read,NAK
0.245028500000000,38,0x72,0x3D,Write,ACK
0.245248500000000,39,0x73,0x0C,Read,ACK
0.245355000000000,39,0x73,0x00,Read,NAK
0.246313000000000,40,0x72,0x3D,Write,ACK
0.246535000000000,41,0x73,0x0C,Read,NAK
0.260412000000000,42,0x72,0x3D,Write,ACK
0.260632000000000,43,0x73,0x0C,Read,NAK
0.284260500000000,44,0x72,0x3D,Write,ACK
0.284480500000000,45,0x73,0x0C,Read,ACK
0.284585500000000,45,0x73,0x00,Read,NAK
0.285261000000000,46,0x72,0x3D,Write,ACK
0.285483000000000,47,0x73,0x0C,Read,NAK
0.321033000000000,48,0x72,0x3D,Write,ACK
0.321253000000000,49,0x73,0x0C,Read,ACK
0.321360000000000,49,0x73,0x00,Read,NAK
0.322310000000000,50,0x72,0x3D,Write,ACK
0.322531500000000,51,0x73,0x0C,Read,NAK
0.323173500000000,52,0x72,0x3D,Write,ACK
0.323395500000000,53,0x73,0x0C,Read,NAK
0.340510500000000,54,0xC0,0xA6,Write,ACK
0.340730500000000,55,0xC1,0x80,Read,ACK
0.340837000000000,55,0xC1,0x00,Read,NAK
0.357028000000000,56,0x72,0x3D,Write,ACK
0.357248000000000,57,0x73,0x0C,Read,ACK
0.357355000000000,57,0x73,0x00,Read,NAK
0.358311000000000,58,0x72,0x3D,Write,ACK
0.358532500000000,59,0x73,0x0C,Read,NAK
0.372406000000000,60,0x72,0x3D,Write,ACK
0.372626000000000,61,0x73,0x0C,Read,NAK
0.396254500000000,62,0x72,0x3D,Write,ACK
0.396474500000000,63,0x73,0x0C,Read,ACK
0.396581000000000,63,0x73,0x00,Read,NAK
0.397257000000000,64,0x72,0x3D,Write,ACK
0.397479000000000,65,0x73,0x0C,Read,NAK
0.433031000000000,66,0x72,0x3D,Write,ACK
0.433251000000000,67,0x73,0x0C,Read,ACK
0.433358000000000,67,0x73,0x00,Read,NAK
0.434311500000000,68,0x72,0x3D,Write,ACK
0.434531500000000,69,0x73,0x0C,Read,NAK
0.435173500000000,70,0x72,0x3D,Write,ACK
0.435395500000000,71,0x73,0x0C,Read,NAK
0.452506500000000,72,0xC0,0xA6,Write,ACK
0.452726000000000,73,0xC1,0x80,Read,ACK
0.452831000000000,73,0xC1,0x00,Read,NAK
0.469016000000000,74,0x72,0x3D,Write,ACK
0.469236000000000,75,0x73,0x0C,Read,ACK
0.469341000000000,75,0x73,0x00,Read,NAK
0.470300500000000,76,0x72,0x3D,Write,ACK
0.470522500000000,77,0x73,0x0C,Read,NAK
0.484400000000000,78,0x72,0x3D,Write,ACK
0.484621500000000,79,0x73,0x0C,Read,NAK
0.508248500000000,80,0x72,0x3D,Write,ACK
0.508468000000000,81,0x73,0x0C,Read,ACK
0.508575000000000,81,0x73,0x00,Read,NAK
0.509251000000000,82,0x72,0x3D,Write,ACK
0.509473000000000,83,0x73,0x0C,Read,NAK
0.541037000000000,84,0x72,0x3D,Write,ACK
0.541257000000000,85,0x73,0x0C,Read,ACK
0.541364000000000,85,0x73,0x00,Read,NAK
0.542319500000000,86,0x72,0x3D,Write,ACK
0.542539500000000,87,0x73,0x0C,Read,NAK
0.543183500000000,88,0x72,0x3D,Write,ACK
0.543405500000000,89,0x73,0x0C,Read,NAK
0.564502000000000,90,0xC0,0xA6,Write,ACK
0.564722000000000,91,0xC1,0x80,Read,ACK
0.564829000000000,91,0xC1,0x00,Read,NAK
0.581016000000000,92,0x72,0x3D,Write,ACK
0.581236000000000,93,0x73,0x0C,Read,ACK
0.581342500000000,93,0x73,0x00,Read,NAK
0.582302500000000,94,0x72,0x3D,Write,ACK
0.582522500000000,95,0x73,0x0C,Read,NAK
0.596393500000000,96,0x72,0x3D,Write,ACK
0.596615500000000,97,0x73,0x0C,Read,NAK
0.620240000000000,98,0x72,0x3D,Write,ACK
0.620460000000000,99,0x73,0x0C,Read,ACK
0.620567000000000,99,0x73,0x00,Read,NAK
0.621241000000000,100,0x72,0x3D,Write,ACK
0.621460500000000,101,0x73,0x0C,Read,NAK
0.657016500000000,102,0x72,0x3D,Write,ACK
0.657236500000000,103,0x73,0x0C,Read,ACK
0.657341500000000,103,0x73,0x00,Read,NAK
0.658295500000000,104,0x72,0x3D,Write,ACK
0.658515000000000,105,0x73,0x0C,Read,NAK
0.659157000000000,106,0x72,0x3D,Write,ACK
0.659377000000000,107,0x73,0x0C,Read,NAK
0.676494000000000,108,0xC0,0xA6,Write,ACK
0.676714000000000,109,0xC1,0x80,Read,ACK
0.676818500000000,109,0xC1,0x00,Read,NAK
0.693010000000000,110,0x72,0x3D,Write,ACK
0.693229500000000,111,0x73,0x0C,Read,ACK
0.693336500000000,111,0x73,0x00,Read,NAK
0.694298500000000,112,0x72,0x3D,Write,ACK
0.694520500000000,113,0x73,0x0C,Read,NAK
0.708389500000000,114,0x72,0x3D,Write,ACK
0.708611500000000,115,0x73,0x0C,Read,NAK
0.732234000000000,116,0x72,0x3D,Write,ACK
0.732454000000000,117,0x73,0x0C,Read,ACK
0.732561000000000,117,0x73,0x00,Read,NAK
0.733236500000000,118,0x72,0x3D,Write,ACK
0.733456500000000,119,0x73,0x0C,Read,NAK
0.769004500000000,120,0x72,0x3D,Write,ACK
0.769224500000000,121,0x73,0x0C,Read,ACK
0.769331500000000,121,0x73,0x00,Read,NAK
0.770287000000000,122,0x72,0x3D,Write,ACK
0.770507000000000,123,0x73,0x0C,Read,NAK
0.771151000000000,124,0x72,0x3D,Write,ACK
0.771373000000000,125,0x73,0x0C,Read,NAK
0.788488000000000,126,0xC0,0xA6,Write,ACK
0.788707500000000,127,0xC1,0x80,Read,ACK
0.788812500000000,127,0xC1,0x00,Read,NAK
0.805001500000000,128,0x72,0x3D,Write,ACK
0.805221500000000,129,0x73,0x0C,Read,ACK
0.805326500000000,129,0x73,0x00,Read,NAK
0.806286500000000,130,0x72,0x3D,Write,ACK
0.806508000000000,131,0x73,0x0C,Read,NAK
0.820375500000000,132,0x72,0x3D,Write,ACK
0.820597000000000,133,0x73,0x0C,Read,NAK
0.844228000000000,134,0x72,0x3D,Write,ACK
0.844447500000000,135,0x73,0x0C,Read,ACK
0.844554500000000,135,0x73,0x00,Read,NAK
0.845230500000000,136,0x72,0x3D,Write,ACK
0.845452500000000,137,0x73,0x0C,Read,NAK
0.880998500000000,138,0x72,0x3D,Write,ACK
0.881218500000000,139,0x73,0x0C,Read,ACK
0.881323000000000,139,0x73,0x00,Read,NAK
0.882277000000000,140,0x72,0x3D,Write,ACK
0.882497000000000,141,0x73,0x0C,Read,NAK
0.883141000000000,142,0x72,0x3D,Write,ACK
0.883360500000000,143,0x73,0x0C,Read,NAK
0.900477500000000,144,0xC0,0xA6,Write,ACK
0.900697500000000,145,0xC1,0x80,Read,ACK
0.900802500000000,145,0xC1,0x00,Read,NAK
0.916985500000000,146,0x72,0x3D,Write,ACK
0.917205500000000,147,0x73,0x0C,Read,ACK
0.917312000000000,147,0x73,0x00,Read,NAK
0.918236000000000,148,0x72,0x3D,Write,ACK
0.918458000000000,149,0x73,0x0C,Read,NAK
0.932377000000000,150,0x72,0x3D,Write,ACK
0.932599000000000,151,0x73,0x0C,Read,NAK
0.956211500000000,152,0x72,0x3D,Write,ACK
0.956431500000000,153,0x73,0x0C,Read,ACK
0.956538500000000,153,0x73,0x00,Read,NAK
0.957210500000000,154,0x72,0x3D,Write,ACK
0.957430000000000,155,0x73,0x0C,Read,NAK
0.992984000000000,156,0x72,0x3D,Write,ACK
0.993204000000000,157,0x73,0x0C,Read,ACK
0.993309000000000,157,0x73,0x00,Read,NAK
0.994235000000000,158,0x72,0x3D,Write,ACK
0.994456500000000,159,0x73,0x0C,Read,NAK
0.995096500000000,160,0x72,0x3D,Write,ACK
0.995318500000000,161,0x73,0x0C,Read,NAK
1.012477500000000,162,0xC0,0xA6,Write,ACK
1.012697500000000,163,0xC1,0x80,Read,ACK
1.012802000000000,163,0xC1,0x00,Read,NAK
1.028997500000000,164,0x72,0x3D,Write,ACK
1.029217000000000,165,0x73,0x0C,Read,ACK
1.029324000000000,165,0x73,0x00,Read,NAK
1.030284000000000,166,0x72,0x3D,Write,ACK
1.030506000000000,167,0x73,0x0C,Read,NAK
1.044367000000000,168,0x72,0x3D,Write,ACK
1.044587000000000,169,0x73,0x0C,Read,NAK
1.068217500000000,170,0x72,0x3D,Write,ACK
1.068437500000000,171,0x73,0x0C,Read,ACK
1.068542500000000,171,0x73,0x00,Read,NAK
1.069216000000000,172,0x72,0x3D,Write,ACK
1.069438000000000,173,0x73,0x0C,Read,NAK
1.104984000000000,174,0x72,0x3D,Write,ACK
1.105204000000000,175,0x73,0x0C,Read,ACK
1.105309000000000,175,0x73,0x00,Read,NAK
1.106260500000000,176,0x72,0x3D,Write,ACK
1.106480500000000,177,0x73,0x0C,Read,NAK
1.107122500000000,178,0x72,0x3D,Write,ACK
1.107344500000000,179,0x73,0x0C,Read,NAK
1.124465500000000,180,0xC0,0xA6,Write,ACK
1.124685000000000,181,0xC1,0x80,Read,ACK
1.124792000000000,181,0xC1,0x00,Read,NAK
1.140989000000000,182,0x72,0x3D,Write,ACK
1.141209000000000,183,0x73,0x0C,Read,ACK
1.141316000000000,183,0x73,0x00,Read,NAK
1.142268000000000,184,0x72,0x3D,Write,ACK
1.142489500000000,185,0x73,0x0C,Read,NAK
1.156367000000000,186,0x72,0x3D,Write,ACK
1.156586500000000,187,0x73,0x0C,Read,NAK
1.180211500000000,188,0x72,0x3D,Write,ACK
1.180431500000000,189,0x73,0x0C,Read,ACK
1.180538000000000,189,0x73,0x00,Read,NAK
1.181214000000000,190,0x72,0x3D,Write,ACK
1.181434000000000,191,0x73,0x0C,Read,NAK
1.216984000000000,192,0x72,0x3D,Write,ACK
1.217204000000000,193,0x73,0x0C,Read,ACK
1.217310500000000,193,0x73,0x00,Read,NAK
1.218264500000000,194,0x72,0x3D,Write,ACK
1.218486500000000,195,0x73,0x0C,Read,NAK
1.219128500000000,196,0x72,0x3D,Write,ACK
1.219348000000000,197,0x73,0x0C,Read,NAK
1.236455000000000,198,0xC0,0xA6,Write,ACK
1.236675000000000,199,0xC1,0x80,Read,ACK
1.236782000000000,199,0xC1,0x00,Read,NAK
1.252979000000000,200,0x72,0x3D,Write,ACK
1.253199000000000,201,0x73,0x0C,Read,ACK
1.253304000000000,201,0x73,0x00,Read,NAK
1.254261500000000,202,0x72,0x3D,Write,ACK
1.254483500000000,203,0x73,0x0C,Read,NAK
1.268356500000000,204,0x72,0x3D,Write,ACK
1.268578500000000,205,0x73,0x0C,Read,NAK
1.292199000000000,206,0x72,0x3D,Write,ACK
1.292419000000000,207,0x73,0x0C,Read,ACK
1.292526000000000,207,0x73,0x00,Read,NAK
1.293202000000000,208,0x72,0x3D,Write,ACK
1.293422000000000,209,0x73,0x0C,Read,NAK
1.328984000000000,210,0x72,0x3D,Write,ACK
1.329203500000000,211,0x73,0x0C,Read,ACK
1.329308500000000,211,0x73,0x00,Read,NAK
1.330260500000000,212,0x72,0x3D,Write,ACK
1.330482500000000,213,0x73,0x0C,Read,NAK
1.331122000000000,214,0x72,0x3D,Write,ACK
1.331344000000000,215,0x73,0x0C,Read,NAK
1.348451000000000,216,0xC0,0xA6,Write,ACK
1.348671000000000,217,0xC1,0x80,Read,ACK
1.348776000000000,217,0xC1,0x00,Read,NAK
1.364979000000000,218,0x72,0x3D,Write,ACK
1.365199000000000,219,0x73,0x0C,Read,ACK
1.365303500000000,219,0x73,0x00,Read,NAK
1.366257500000000,220,0x72,0x3D,Write,ACK
1.366479500000000,221,0x73,0x0C,Read,NAK
1.380352500000000,222,0x72,0x3D,Write,ACK
1.380574500000000,223,0x73,0x0C,Read,NAK
1.404201000000000,224,0x72,0x3D,Write,ACK
1.404421000000000,225,0x73,0x0C,Read,ACK
1.404528000000000,225,0x73,0x00,Read,NAK
1.405204000000000,226,0x72,0x3D,Write,ACK
1.405425500000000,227,0x73,0x0C,Read,NAK
1.440963500000000,228,0x72,0x3D,Write,ACK
1.441183500000000,229,0x73,0x0C,Read,ACK
1.441288500000000,229,0x73,0x00,Read,NAK
1.442244500000000,230,0x72,0x3D,Write,ACK
1.442466000000000,231,0x73,0x0C,Read,NAK
1.443108000000000,232,0x72,0x3D,Write,ACK
1.443328000000000,233,0x73,0x0C,Read,NAK
1.460447000000000,234,0xC0,0xA6,Write,ACK
1.460667000000000,235,0xC1,0x80,Read,ACK
1.460772000000000,235,0xC1,0x00,Read,NAK
1.476963000000000,236,0x72,0x3D,Write,ACK
1.477182500000000,237,0x73,0x0C,Read,ACK
1.477289500000000,237,0x73,0x00,Read,NAK
1.478247500000000,238,0x72,0x3D,Write,ACK
1.478469500000000,239,0x73,0x0C,Read,NAK
1.492344500000000,240,0x72,0x3D,Write,ACK
1.492566500000000,241,0x73,0x0C,Read,NAK
1.516193000000000,242,0x72,0x3D,Write,ACK
1.516413000000000,243,0x73,0x0C,Read,ACK
1.516520000000000,243,0x73,0x00,Read,NAK
1.517193500000000,244,0x72,0x3D,Write,ACK
1.517413500000000,245,0x73,0x0C,Read,NAK
1.552967500000000,246,0x72,0x3D,Write,ACK
1.553187500000000,247,0x73,0x0C,Read,ACK
1.553294500000000,247,0x73,0x00,Read,NAK
1.554250000000000,248,0x72,0x3D,Write,ACK
1.554472000000000,249,0x73,0x0C,Read,NAK
1.555114000000000,250,0x72,0x3D,Write,ACK
1.555334000000000,251,0x73,0x0C,Read,NAK
1.572449000000000,252,0xC0,0xA6,Write,ACK
1.572669000000000,253,0xC1,0x80,Read,ACK
1.572775500000000,253,0xC1,0x00,Read,NAK
1.588968500000000,254,0x72,0x3D,Write,ACK
1.589188500000000,255,0x73,0x0C,Read,ACK
1.589293500000000,255,0x73,0x00,Read,NAK
1.590249500000000,256,0x72,0x3D,Write,ACK
1.590469000000000,257,0x73,0x0C,Read,NAK
1.604340500000000,258,0x72,0x3D,Write,ACK
1.604560500000000,259,0x73,0x0C,Read,NAK
1.628187000000000,260,0x72,0x3D,Write,ACK
1.628407000000000,261,0x73,0x0C,Read,ACK
1.628511500000000,261,0x73,0x00,Read,NAK
1.629187500000000,262,0x72,0x3D,Write,ACK
1.629407500000000,263,0x73,0x0C,Read,NAK
1.664963500000000,264,0x72,0x3D,Write,ACK
1.665183500000000,265,0x73,0x0C,Read,ACK
1.665290500000000,265,0x73,0x00,Read,NAK
1.666244000000000,266,0x72,0x3D,Write,ACK
1.666466000000000,267,0x73,0x0C,Read,NAK
1.667108000000000,268,0x72,0x3D,Write,ACK
1.667330000000000,269,0x73,0x0C,Read,NAK
1.684436500000000,270,0xC0,0xA6,Write,ACK
1.684656500000000,271,0xC1,0x80,Read,ACK
1.684763500000000,271,0xC1,0x00,Read,NAK
1.700958500000000,272,0x72,0x3D,Write,ACK
1.701178500000000,273,0x73,0x0C,Read,ACK
1.701283500000000,273,0x73,0x00,Read,NAK
1.702245000000000,274,0x72,0x3D,Write,ACK
1.702467000000000,275,0x73,0x0C,Read,NAK
1.716340500000000,276,0x72,0x3D,Write,ACK
1.716560000000000,277,0x73,0x0C,Read,NAK
1.740179000000000,278,0x72,0x3D,Write,ACK
1.740398500000000,279,0x73,0x0C,Read,ACK
1.740505500000000,279,0x73,0x00,Read,NAK
1.741183500000000,280,0x72,0x3D,Write,ACK
1.741403500000000,281,0x73,0x0C,Read,NAK
1.772961500000000,282,0x72,0x3D,Write,ACK
1.773181500000000,283,0x73,0x0C,Read,ACK
1.773288500000000,283,0x73,0x00,Read,NAK
1.774246000000000,284,0x72,0x3D,Write,ACK
1.774468000000000,285,0x73,0x0C,Read,NAK
1.775110000000000,286,0x72,0x3D,Write,ACK
1.775330000000000,287,0x73,0x0C,Read,NAK
1.796434500000000,288,0xC0,0xA6,Write,ACK
1.796654500000000,289,0xC1,0x80,Read,ACK
1.796761500000000,289,0xC1,0x00,Read,NAK
1.812954500000000,290,0x72,0x3D,Write,ACK
1.813174500000000,291,0x73,0x0C,Read,ACK
1.813281500000000,291,0x73,0x00,Read,NAK
1.814239000000000,292,0x72,0x3D,Write,ACK
1.814459000000000,293,0x73,0x0C,Read,NAK
1.828330000000000,294,0x72,0x3D,Write,ACK
1.828550000000000,295,0x73,0x0C,Read,NAK
1.852168500000000,296,0x72,0x3D,Write,ACK
1.852388500000000,297,0x73,0x0C,Read,ACK
1.852495500000000,297,0x73,0x00,Read,NAK
1.853169500000000,298,0x72,0x3D,Write,ACK
1.853391000000000,299,0x73,0x0C,Read,NAK
1.888945500000000,300,0x72,0x3D,Write,ACK
1.889165000000000,301,0x73,0x0C,Read,ACK
1.889272000000000,301,0x73,0x00,Read,NAK
1.890230000000000,302,0x72,0x3D,Write,ACK
1.890450000000000,303,0x73,0x0C,Read,NAK
1.891087500000000,304,0x72,0x3D,Write,ACK
1.891309500000000,305,0x73,0x0C,Read,NAK
1.908424500000000,306,0xC0,0xA6,Write,ACK
1.908644500000000,307,0xC1,0x80,Read,ACK
1.908751500000000,307,0xC1,0x00,Read,NAK
1.924944500000000,308,0x72,0x3D,Write,ACK
1.925164500000000,309,0x73,0x0C,Read,ACK
1.925269000000000,309,0x73,0x00,Read,NAK
1.926225000000000,310,0x72,0x3D,Write,ACK
1.926447000000000,311,0x73,0x0C,Read,NAK
1.940320000000000,312,0x72,0x3D,Write,ACK
1.940540000000000,313,0x73,0x0C,Read,NAK
1.964168500000000,314,0x72,0x3D,Write,ACK
1.964388500000000,315,0x73,0x0C,Read,ACK
1.964493500000000,315,0x73,0x00,Read,NAK
1.965167500000000,316,0x72,0x3D,Write,ACK
1.965389000000000,317,0x73,0x0C,Read,NAK
2.000935000000000,318,0x72,0x3D,Write,ACK
2.001155000000000,319,0x73,0x0C,Read,ACK
2.001260000000000,319,0x73,0x00,Read,NAK
2.002214000000000,320,0x72,0x3D,Write,ACK
2.002433500000000,321,0x73,0x0C,Read,NAK
2.003073500000000,322,0x72,0x3D,Write,ACK
2.003295500000000,323,0x73,0x0C,Read,NAK
2.020424500000000,324,0xC0,0xA6,Write,ACK
2.020644500000000,325,0xC1,0x80,Read,ACK
2.020751500000000,325,0xC1,0x00,Read,NAK
2.036942500000000,326,0x72,0x3D,Write,ACK
2.037162000000000,327,0x73,0x0C,Read,ACK
2.037269000000000,327,0x73,0x00,Read,NAK
2.038227000000000,328,0x72,0x3D,Write,ACK
2.038447000000000,329,0x73,0x0C,Read,NAK
2.052324000000000,330,0x72,0x3D,Write,ACK
2.052546000000000,331,0x73,0x0C,Read,NAK
2.076158500000000,332,0x72,0x3D,Write,ACK
2.076378500000000,333,0x73,0x0C,Read,ACK
2.076485500000000,333,0x73,0x00,Read,NAK
2.077159000000000,334,0x72,0x3D,Write,ACK
2.077379000000000,335,0x73,0x0C,Read,NAK
2.112941000000000,336,0x72,0x3D,Write,ACK
2.113161000000000,337,0x73,0x0C,Read,ACK
2.113268000000000,337,0x73,0x00,Read,NAK
2.114265500000000,338,0x72,0x3D,Write,ACK
2.114485500000000,339,0x73,0x0C,Read,NAK
2.115123500000000,340,0x72,0x3D,Write,ACK
2.115343500000000,341,0x73,0x0C,Read,NAK
2.132696500000000,342,0xC0,0xA6,Write,ACK
2.132916500000000,343,0xC1,0x80,Read,ACK
2.133021000000000,343,0xC1,0x00,Read,NAK
2.148936000000000,344,0x72,0x3D,Write,ACK
2.149156000000000,345,0x73,0x0C,Read,ACK
2.149263000000000,345,0x73,0x00,Read,NAK
2.150219000000000,346,0x72,0x3D,Write,ACK
2.150440500000000,347,0x73,0x0C,Read,NAK
2.164312000000000,348,0x72,0x3D,Write,ACK
2.164534000000000,349,0x73,0x0C,Read,NAK
2.188164500000000,350,0x72,0x3D,Write,ACK
2.188384500000000,351,0x73,0x0C,Read,ACK
2.188491000000000,351,0x73,0x00,Read,NAK
2.189167000000000,352,0x72,0x3D,Write,ACK
2.189389000000000,353,0x73,0x0C,Read,NAK
2.224933000000000,354,0x72,0x3D,Write,ACK
2.225153000000000,355,0x73,0x0C,Read,ACK
2.225260000000000,355,0x73,0x00,Read,NAK
2.226211500000000,356,0x72,0x3D,Write,ACK
2.226431500000000,357,0x73,0x0C,Read,NAK
2.227073500000000,358,0x72,0x3D,Write,ACK
2.227293500000000,359,0x73,0x0C,Read,NAK
2.244402500000000,360,0xC0,0xA6,Write,ACK
2.244622000000000,361,0xC1,0x80,Read,ACK
2.244729000000000,361,0xC1,0x00,Read,NAK
2.260920000000000,362,0x72,0x3D,Write,ACK
2.261140000000000,363,0x73,0x0C,Read,ACK
2.261247000000000,363,0x73,0x00,Read,NAK
2.262205000000000,364,0x72,0x3D,Write,ACK
2.262426500000000,365,0x73,0x0C,Read,NAK
2.276306000000000,366,0x72,0x3D,Write,ACK
2.276525500000000,367,0x73,0x0C,Read,NAK
2.300146500000000,368,0x72,0x3D,Write,ACK
2.300366000000000,369,0x73,0x0C,Read,ACK
2.300473000000000,369,0x73,0x00,Read,NAK
2.301147000000000,370,0x72,0x3D,Write,ACK
2.301369000000000,371,0x73,0x0C,Read,NAK
2.336927000000000,372,0x72,0x3D,Write,ACK
2.337147000000000,373,0x73,0x0C,Read,ACK
2.337253500000000,373,0x73,0x00,Read,NAK
2.338205500000000,374,0x72,0x3D,Write,ACK
2.338425500000000,375,0x73,0x0C,Read,NAK
2.339067500000000,376,0x72,0x3D,Write,ACK
2.339287000000000,377,0x73,0x0C,Read,NAK
2.356402000000000,378,0xC0,0xA6,Write,ACK
2.356622000000000,379,0xC1,0x80,Read,ACK
2.356727000000000,379,0xC1,0x00,Read,NAK
2.372914000000000,380,0x72,0x3D,Write,ACK
2.373134000000000,381,0x73,0x0C,Read,ACK
2.373241000000000,381,0x73,0x00,Read,NAK
2.374200500000000,382,0x72,0x3D,Write,ACK
2.374422500000000,383,0x73,0x0C,Read,NAK
2.388303500000000,384,0x72,0x3D,Write,ACK
2.388523500000000,385,0x73,0x0C,Read,NAK
2.412140000000000,386,0x72,0x3D,Write,ACK
2.412360000000000,387,0x73,0x0C,Read,ACK
2.412465000000000,387,0x73,0x00,Read,NAK
2.413139000000000,388,0x72,0x3D,Write,ACK
2.413358500000000,389,0x73,0x0C,Read,NAK
2.448922500000000,390,0x72,0x3D,Write,ACK
2.449142500000000,391,0x73,0x0C,Read,ACK
2.449249500000000,391,0x73,0x00,Read,NAK
2.450203500000000,392,0x72,0x3D,Write,ACK
2.450425500000000,393,0x73,0x0C,Read,NAK
2.451067000000000,394,0x72,0x3D,Write,ACK
2.451289000000000,395,0x73,0x0C,Read,NAK
2.468392000000000,396,0xC0,0xA6,Write,ACK
2.468612000000000,397,0xC1,0x80,Read,ACK
2.468719000000000,397,0xC1,0x00,Read,NAK
2.484914000000000,398,0x72,0x3D,Write,ACK
2.485133500000000,399,0x73,0x0C,Read,ACK
2.485238500000000,399,0x73,0x00,Read,NAK
2.486198500000000,400,0x72,0x3D,Write,ACK
2.486418500000000,401,0x73,0x0C,Read,NAK
2.500293500000000,402,0x72,0x3D,Write,ACK
2.500513500000000,403,0x73,0x0C,Read,NAK
2.524134000000000,404,0x72,0x3D,Write,ACK
2.524354000000000,405,0x73,0x0C,Read,ACK
2.524461000000000,405,0x73,0x00,Read,NAK
2.525134500000000,406,0x72,0x3D,Write,ACK
2.525354500000000,407,0x73,0x0C,Read,NAK
2.560916500000000,408,0x72,0x3D,Write,ACK
2.561136500000000,409,0x73,0x0C,Read,ACK
2.561241500000000,409,0x73,0x00,Read,NAK
2.562193000000000,410,0x72,0x3D,Write,ACK
2.562415000000000,411,0x73,0x0C,Read,NAK
2.563057000000000,412,0x72,0x3D,Write,ACK
2.563277000000000,413,0x73,0x0C,Read,NAK
2.580396000000000,414,0xC0,0xA6,Write,ACK
2.580616000000000,415,0xC1,0x80,Read,ACK
2.580722500000000,415,0xC1,0x00,Read,NAK
2.596909500000000,416,0x72,0x3D,Write,ACK
2.597131500000000,417,0x73,0x0C,Read,ACK
2.597236500000000,417,0x73,0x00,Read,NAK
2.598196500000000,418,0x72,0x3D,Write,ACK
2.598416000000000,419,0x73,0x0C,Read,NAK
2.612289500000000,420,0x72,0x3D,Write,ACK
2.612509500000000,421,0x73,0x0C,Read,NAK
2.636132000000000,422,0x72,0x3D,Write,ACK
2.636352000000000,423,0x73,0x0C,Read,ACK
2.636458500000000,423,0x73,0x00,Read,NAK
2.637134500000000,424,0x72,0x3D,Write,ACK
2.637354500000000,425,0x73,0x0C,Read,NAK
2.672908500000000,426,0x72,0x3D,Write,ACK
2.673128500000000,427,0x73,0x0C,Read,ACK
2.673235500000000,427,0x73,0x00,Read,NAK
2.674189000000000,428,0x72,0x3D,Write,ACK
2.674409000000000,429,0x73,0x0C,Read,NAK
2.675051000000000,430,0x72,0x3D,Write,ACK
2.675271000000000,431,0x73,0x0C,Read,NAK
2.692384000000000,432,0xC0,0xA6,Write,ACK
2.692605500000000,433,0xC1,0x80,Read,ACK
2.692712500000000,433,0xC1,0x00,Read,NAK
2.708903500000000,434,0x72,0x3D,Write,ACK
2.709123500000000,435,0x73,0x0C,Read,ACK
2.709228500000000,435,0x73,0x00,Read,NAK
2.710188000000000,436,0x72,0x3D,Write,ACK
2.710408000000000,437,0x73,0x0C,Read,NAK
2.724283500000000,438,0x72,0x3D,Write,ACK
2.724505000000000,439,0x73,0x0C,Read,NAK
2.748134000000000,440,0x72,0x3D,Write,ACK
2.748353500000000,441,0x73,0x0C,Read,ACK
2.748458500000000,441,0x73,0x00,Read,NAK
2.749136500000000,442,0x72,0x3D,Write,ACK
2.749356500000000,443,0x73,0x0C,Read,NAK
2.784904500000000,444,0x72,0x3D,Write,ACK
2.785124500000000,445,0x73,0x0C,Read,ACK
2.785231000000000,445,0x73,0x00,Read,NAK
2.786187000000000,446,0x72,0x3D,Write,ACK
2.786409000000000,447,0x73,0x0C,Read,NAK
2.787053000000000,448,0x72,0x3D,Write,ACK
2.787272500000000,449,0x73,0x0C,Read,NAK
2.804381500000000,450,0xC0,0xA6,Write,ACK
2.804601500000000,451,0xC1,0x80,Read,ACK
2.804706500000000,451,0xC1,0x00,Read,NAK
2.820893500000000,452,0x72,0x3D,Write,ACK
2.821113500000000,453,0x73,0x0C,Read,ACK
2.821218500000000,453,0x73,0x00,Read,NAK
2.822178000000000,454,0x72,0x3D,Write,ACK
2.822398000000000,455,0x73,0x0C,Read,NAK
2.836281000000000,456,0x72,0x3D,Write,ACK
2.836501000000000,457,0x73,0x0C,Read,NAK
2.860119500000000,458,0x72,0x3D,Write,ACK
2.860339500000000,459,0x73,0x0C,Read,ACK
2.860444500000000,459,0x73,0x00,Read,NAK
2.861118500000000,460,0x72,0x3D,Write,ACK
2.861340000000000,461,0x73,0x0C,Read,NAK
2.896904000000000,462,0x72,0x3D,Write,ACK
2.897124000000000,463,0x73,0x0C,Read,ACK
2.897229000000000,463,0x73,0x00,Read,NAK
2.898181000000000,464,0x72,0x3D,Write,ACK
2.898403000000000,465,0x73,0x0C,Read,NAK
2.899038500000000,466,0x72,0x3D,Write,ACK
2.899260500000000,467,0x73,0x0C,Read,NAK
2.916361500000000,468,0xC0,0xA6,Write,ACK
2.916581500000000,469,0xC1,0x80,Read,ACK
2.916686500000000,469,0xC1,0x00,Read,NAK
2.932885500000000,470,0x72,0x3D,Write,ACK
2.933105000000000,471,0x73,0x0C,Read,ACK
2.933210000000000,471,0x73,0x00,Read,NAK
2.934144000000000,472,0x72,0x3D,Write,ACK
2.934366000000000,473,0x73,0x0C,Read,NAK
2.948273000000000,474,0x72,0x3D,Write,ACK
2.948493000000000,475,0x73,0x0C,Read,NAK
2.972107500000000,476,0x72,0x3D,Write,ACK
2.972327500000000,477,0x73,0x0C,Read,ACK
2.972432500000000,477,0x73,0x00,Read,NAK
2.973106000000000,478,0x72,0x3D,Write,ACK
2.973328000000000,479,0x73,0x0C,Read,NAK
3.004882500000000,480,0x72,0x3D,Write,ACK
3.005102000000000,481,0x73,0x0C,Read,ACK
3.005209000000000,481,0x73,0x00,Read,NAK
3.006161000000000,482,0x72,0x3D,Write,ACK
3.006381000000000,483,0x73,0x0C,Read,NAK
3.007016500000000,484,0x72,0x3D,Write,ACK
3.007238500000000,485,0x73,0x0C,Read,NAK
3.020548000000000,486,0xC0,0xA6,Write,ACK
3.020767500000000,487,0xC1,0x80,Read,ACK
3.020874500000000,487,0xC1,0x00,Read,NAK
3.040877500000000,488,0x72,0x3D,Write,ACK
3.041097500000000,489,0x73,0x0C,Read,ACK
3.041204000000000,489,0x73,0x00,Read,NAK
3.042162000000000,490,0x72,0x3D,Write,ACK
3.042382000000000,491,0x73,0x0C,Read,NAK
3.056271000000000,492,0x72,0x3D,Write,ACK
3.056493000000000,493,0x73,0x0C,Read,NAK
3.080111500000000,494,0x72,0x3D,Write,ACK
3.080331500000000,495,0x73,0x0C,Read,ACK
3.080438500000000,495,0x73,0x00,Read,NAK
3.081112500000000,496,0x72,0x3D,Write,ACK
3.081332000000000,497,0x73,0x0C,Read,NAK
3.118302000000000,498,0x72,0x3D,Write,ACK
3.118522000000000,499,0x73,0x0C,Read,ACK
3.118627000000000,499,0x73,0x00,Read,NAK
3.119298500000000,500,0x72,0x3D,Write,ACK
3.119518500000000,501,0x73,0x0C,Read,NAK
3.120162500000000,502,0x72,0x3D,Write,ACK
3.120382500000000,503,0x73,0x0C,Read,NAK
3.136355500000000,504,0xC0,0xA6,Write,ACK
3.136575500000000,505,0xC1,0x80,Read,ACK
3.136682000000000,505,0xC1,0x00,Read,NAK
3.152865500000000,506,0x72,0x3D,Write,ACK
3.153085000000000,507,0x73,0x0C,Read,ACK
3.153192000000000,507,0x73,0x00,Read,NAK
3.154116000000000,508,0x72,0x3D,Write,ACK
3.154336000000000,509,0x73,0x0C,Read,NAK
3.168259000000000,510,0x72,0x3D,Write,ACK
3.168479000000000,511,0x73,0x0C,Read,NAK
3.192103500000000,512,0x72,0x3D,Write,ACK
3.192323500000000,513,0x73,0x0C,Read,ACK
3.192428500000000,513,0x73,0x00,Read,NAK
3.193102000000000,514,0x72,0x3D,Write,ACK
3.193324000000000,515,0x73,0x0C,Read,NAK
3.228882000000000,516,0x72,0x3D,Write,ACK
3.229102000000000,517,0x73,0x0C,Read,ACK
3.229207000000000,517,0x73,0x00,Read,NAK
3.230158500000000,518,0x72,0x3D,Write,ACK
3.230380500000000,519,0x73,0x0C,Read,NAK
3.231022500000000,520,0x72,0x3D,Write,ACK
3.231242500000000,521,0x73,0x0C,Read,NAK
3.248353500000000,522,0xC0,0xA6,Write,ACK
3.248573000000000,523,0xC1,0x80,Read,ACK
3.248680000000000,523,0xC1,0x00,Read,NAK
3.264869000000000,524,0x72,0x3D,Write,ACK
3.265089000000000,525,0x73,0x0C,Read,ACK
3.265194000000000,525,0x73,0x00,Read,NAK
3.266153500000000,526,0x72,0x3D,Write,ACK
3.266375500000000,527,0x73,0x0C,Read,NAK
3.280251000000000,528,0x72,0x3D,Write,ACK
3.280472500000000,529,0x73,0x0C,Read,NAK
3.304101500000000,530,0x72,0x3D,Write,ACK
3.304321000000000,531,0x73,0x0C,Read,ACK
3.304428000000000,531,0x73,0x00,Read,NAK
3.305102000000000,532,0x72,0x3D,Write,ACK
3.305324000000000,533,0x73,0x0C,Read,NAK
3.340872000000000,534,0x72,0x3D,Write,ACK
3.341092000000000,535,0x73,0x0C,Read,ACK
3.341198500000000,535,0x73,0x00,Read,NAK
3.342152500000000,536,0x72,0x3D,Write,ACK
3.342372500000000,537,0x73,0x0C,Read,NAK
3.343014500000000,538,0x72,0x3D,Write,ACK
3.343234000000000,539,0x73,0x0C,Read,NAK
3.360347000000000,540,0xC0,0xA6,Write,ACK
3.360567000000000,541,0xC1,0x80,Read,ACK
3.360674000000000,541,0xC1,0x00,Read,NAK
3.376873000000000,542,0x72,0x3D,Write,ACK
3.377093000000000,543,0x73,0x0C,Read,ACK
3.377197500000000,543,0x73,0x00,Read,NAK
3.378153500000000,544,0x72,0x3D,Write,ACK
3.378373500000000,545,0x73,0x0C,Read,NAK
3.392250500000000,546,0x72,0x3D,Write,ACK
3.392472500000000,547,0x73,0x0C,Read,NAK
3.416093000000000,548,0x72,0x3D,Write,ACK
3.416313000000000,549,0x73,0x0C,Read,ACK
3.416420000000000,549,0x73,0x00,Read,NAK
3.417096000000000,550,0x72,0x3D,Write,ACK
3.417315500000000,551,0x73,0x0C,Read,NAK
3.452873500000000,552,0x72,0x3D,Write,ACK
3.453093500000000,553,0x73,0x0C,Read,ACK
3.453200500000000,553,0x73,0x00,Read,NAK
3.454156500000000,554,0x72,0x3D,Write,ACK
3.454378000000000,555,0x73,0x0C,Read,NAK
3.455022000000000,556,0x72,0x3D,Write,ACK
3.455242000000000,557,0x73,0x0C,Read,NAK
3.472343000000000,558,0xC0,0xA6,Write,ACK
3.472563000000000,559,0xC1,0x80,Read,ACK
3.472669500000000,559,0xC1,0x00,Read,NAK
3.488851000000000,560,0x72,0x3D,Write,ACK
3.489070500000000,561,0x73,0x0C,Read,ACK
3.489175500000000,561,0x73,0x00,Read,NAK
3.490099500000000,562,0x72,0x3D,Write,ACK
3.490321500000000,563,0x73,0x0C,Read,NAK
3.504240500000000,564,0x72,0x3D,Write,ACK
3.504462500000000,565,0x73,0x0C,Read,NAK
3.544278000000000,566,0x72,0x2A,Write,ACK
3.544500000000000,567,0x73,0x00,Read,NAK
3.546800000000000,568,0x72,0x1A,Write,ACK
3.547019500000000,569,0x73,0x40,Read,NAK
3.547571500000000,570,0x72,0x1A,Write,ACK
3.547674500000000,570,0x72,0x48,Write,ACK
3.550062500000000,571,0x72,0xBF,Write,ACK
3.550165000000000,571,0x72,0x07,Write,ACK
3.550721000000000,572,0x72,0xBF,Write,ACK
3.550824000000000,572,0x72,0x03,Write,ACK
3.555579500000000,573,0x72,0x3D,Write,ACK
3.555799500000000,574,0x73,0x0C,Read,ACK
3.555904500000000,574,0x73,0x01,Read,NAK
3.556458000000000,575,0x72,0x3D,Write,ACK
3.556561000000000,575,0x72,0x00,Write,ACK
3.556664000000000,575,0x72,0x01,Write,ACK
3.557218000000000,576,0x72,0x40,Write,ACK
3.557440000000000,577,0x73,0xC0,Read,NAK
3.558211500000000,578,0x72,0x1A,Write,ACK
3.558431500000000,579,0x73,0x48,Read,NAK
3.558981500000000,580,0x72,0x40,Write,ACK
3.559203500000000,581,0x73,0xC0,Read,NAK
3.559759000000000,582,0xC0,0xA6,Write,ACK
3.559979000000000,583,0xC1,0x80,Read,NAK
3.560531000000000,584,0xC0,0xA6,Write,ACK
3.560634000000000,584,0xC0,0x64,Write,ACK
3.560736500000000,584,0xC0,0x02,Write,ACK
3.561282500000000,585,0xC0,0x89,Write,ACK
3.561385500000000,585,0xC0,0x0F,Write,ACK
3.562145500000000,586,0xC0,0x8F,Write,ACK
3.562248000000000,586,0xC0,0x84,Write,ACK
3.562794000000000,587,0xC0,0x90,Write,ACK
3.562897000000000,587,0xC0,0x10,Write,ACK
3.563000000000000,587,0xC0,0x00,Write,ACK
3.563103000000000,587,0xC0,0x05,Write,ACK
3.563652500000000,588,0xC0,0x9F,Write,ACK
3.563755500000000,588,0xC0,0x13,Write,ACK
3.564307500000000,589,0xC0,0x00,Write,ACK
3.564410500000000,589,0xC0,0xEC,Write,ACK
3.564513000000000,589,0xC0,0xCD,Write,ACK
3.564616000000000,589,0xC0,0x01,Write,ACK
3.564719000000000,589,0xC0,0x00,Write,ACK
3.564822000000000,589,0xC0,0xC0,Write,ACK
3.564925000000000,589,0xC0,0x30,Write,ACK
3.565472500000000,590,0xC0,0xA6,Write,ACK
3.565844500000000,591,0xC1,0x80,Read,NAK
3.566400500000000,592,0xC0,0xA6,Write,ACK
3.566620500000000,593,0xC1,0x80,Read,NAK
3.567170000000000,594,0xC0,0xA6,Write,ACK
3.567392000000000,595,0xC1,0x80,Read,NAK
3.567942000000000,596,0xC0,0xA6,Write,ACK
3.568164000000000,597,0xC1,0x80,Read,NAK
3.568715500000000,598,0xC0,0xA6,Write,ACK
3.568935500000000,599,0xC1,0x80,Read,NAK
3.569485500000000,600,0xC0,0xA6,Write,ACK
3.569843500000000,601,0xC1,0x80,Read,NAK
3.570399000000000,602,0xC0,0xA6,Write,ACK
3.570619000000000,603,0xC1,0x80,Read,NAK
3.571169000000000,604,0xC0,0xA6,Write,ACK
3.571391000000000,605,0xC1,0x80,Read,NAK
3.571942500000000,606,0xC0,0xA6,Write,ACK
3.572164500000000,607,0xC1,0x80,Read,NAK
3.572716500000000,608,0xC0,0xA6,Write,ACK
3.572936500000000,609,0xC1,0x80,Read,NAK
3.573484000000000,610,0xC0,0xA6,Write,ACK
3.573842000000000,611,0xC1,0x80,Read,NAK
3.574400000000000,612,0xC0,0xA6,Write,ACK
3.574620000000000,613,0xC1,0x80,Read,NAK
3.575169500000000,614,0xC0,0xA6,Write,ACK
3.575389500000000,615,0xC1,0x80,Read,NAK
3.575939500000000,616,0xC0,0xA6,Write,ACK
3.576161500000000,617,0xC1,0x00,Read,NAK
3.576711000000000,618,0xC0,0xA6,Write,ACK
3.576931000000000,619,0xC1,0x00,Read,NAK
3.577481000000000,620,0xC0,0xA6,Write,ACK
3.577841000000000,621,0xC1,0x00,Read,NAK
3.578399000000000,622,0xC0,0xA6,Write,ACK
3.578618500000000,623,0xC1,0x00,Read,NAK
3.579168500000000,624,0xC0,0xA6,Write,ACK
3.579388500000000,625,0xC1,0x00,Read,NAK
3.579942500000000,626,0xC0,0xA6,Write,ACK
3.580162000000000,627,0xC1,0x80,Read,NAK
3.580712000000000,628,0xC0,0xA6,Write,ACK
3.580932000000000,629,0xC1,0x00,Read,NAK
3.581482000000000,630,0xC0,0xA6,Write,ACK
3.581839500000000,631,0xC1,0x80,Read,NAK
3.582397500000000,632,0xC0,0xA6,Write,ACK
3.582617500000000,633,0xC1,0x80,Read,NAK
3.583167500000000,634,0xC0,0xA6,Write,ACK
3.583389000000000,635,0xC1,0x00,Read,NAK
3.583939000000000,636,0xC0,0xA6,Write,ACK
3.584159000000000,637,0xC1,0x80,Read,NAK
3.584709000000000,638,0xC0,0xA6,Write,ACK
3.584928500000000,639,0xC1,0x80,Read,NAK
3.585476500000000,640,0xC0,0xA6,Write,ACK
3.585840500000000,641,0xC1,0x00,Read,NAK
3.586398500000000,642,0xC0,0xA6,Write,ACK
3.586618000000000,643,0xC1,0x80,Read,NAK
3.587168000000000,644,0xC0,0xA6,Write,ACK
3.587390000000000,645,0xC1,0x80,Read,NAK
3.587940000000000,646,0xC0,0xA6,Write,ACK
3.588161500000000,647,0xC1,0x00,Read,NAK
3.588711500000000,648,0xC0,0xA6,Write,ACK
3.588931500000000,649,0xC1,0x80,Read,NAK
3.589483500000000,650,0xC0,0xA6,Write,ACK
3.589839000000000,651,0xC1,0x80,Read,NAK
3.590395000000000,652,0xC0,0xA6,Write,ACK
3.590615000000000,653,0xC1,0x00,Read,NAK
3.591167000000000,654,0xC0,0xA6,Write,ACK
3.591387000000000,655,0xC1,0x80,Read,NAK
3.591936500000000,656,0xC0,0xA6,Write,ACK
3.592156500000000,657,0xC1,0x80,Read,NAK
3.592706500000000,658,0xC0,0xA6,Write,ACK
3.592926500000000,659,0xC1,0x00,Read,NAK
3.593476000000000,660,0xC0,0xA6,Write,ACK
3.593840000000000,661,0xC1,0x80,Read,NAK
3.594396000000000,662,0xC0,0xA6,Write,ACK
3.594616000000000,663,0xC1,0x80,Read,NAK
3.595163500000000,664,0xC0,0xA6,Write,ACK
3.595385500000000,665,0xC1,0x00,Read,NAK
3.595935500000000,666,0xC0,0xA6,Write,ACK
3.596157500000000,667,0xC1,0x80,Read,NAK
3.596707000000000,668,0xC0,0xA6,Write,ACK
3.596929000000000,669,0xC1,0x80,Read,NAK
3.597479000000000,670,0xC0,0xA6,Write,ACK
3.597841000000000,671,0xC1,0x00,Read,NAK
3.598398500000000,672,0xC0,0xA6,Write,ACK
3.598618500000000,673,0xC1,0x80,Read,NAK
3.599166500000000,674,0xC0,0xA6,Write,ACK
3.599388500000000,675,0xC1,0x80,Read,NAK
3.599938000000000,676,0xC0,0xA6,Write,ACK
3.600158000000000,677,0xC1,0x00,Read,NAK
3.600712000000000,678,0xC0,0xA6,Write,ACK
3.600934000000000,679,0xC1,0x00,Read,NAK
3.601483500000000,680,0xC0,0xA6,Write,ACK
3.601839500000000,681,0xC1,0x80,Read,NAK
3.602397500000000,682,0xC0,0xA6,Write,ACK
3.602617500000000,683,0xC1,0x00,Read,NAK
3.603169000000000,684,0xC0,0xA6,Write,ACK
3.603391000000000,685,0xC1,0x80,Read,NAK
3.603943000000000,686,0xC0,0xA6,Write,ACK
3.604163000000000,687,0xC1,0x80,Read,NAK
3.604713000000000,688,0xC0,0xA6,Write,ACK
3.604932500000000,689,0xC1,0x00,Read,NAK
3.605484500000000,690,0xC0,0xA6,Write,ACK
3.605840500000000,691,0xC1,0x80,Read,NAK
3.606400500000000,692,0xC0,0xA6,Write,ACK
3.606620000000000,693,0xC1,0x80,Read,NAK
3.607172000000000,694,0xC0,0xA6,Write,ACK
3.607392000000000,695,0xC1,0x00,Read,NAK
3.607942000000000,696,0xC0,0xA6,Write,ACK
3.608161500000000,697,0xC1,0x00,Read,NAK
3.608713500000000,698,0xC0,0xA6,Write,ACK
3.608935500000000,699,0xC1,0x80,Read,NAK
3.609487500000000,700,0xC0,0xA6,Write,ACK
3.609841000000000,701,0xC1,0x00,Read,NAK
3.610401000000000,702,0xC0,0xA6,Write,ACK
3.610623000000000,703,0xC1,0x00,Read,NAK
3.611175000000000,704,0xC0,0xA6,Write,ACK
3.611396500000000,705,0xC1,0x80,Read,NAK
3.611948500000000,706,0xC0,0xA6,Write,ACK
3.612170500000000,707,0xC1,0x80,Read,NAK
3.612722500000000,708,0xC0,0xA6,Write,ACK
3.612944000000000,709,0xC1,0x00,Read,NAK
3.613496000000000,710,0xC0,0xA6,Write,ACK
3.613842000000000,711,0xC1,0x80,Read,NAK
3.614402000000000,712,0xC0,0xA6,Write,ACK
3.614621500000000,713,0xC1,0x80,Read,NAK
3.615173500000000,714,0xC0,0xA6,Write,ACK
3.615395500000000,715,0xC1,0x00,Read,NAK
3.615947500000000,716,0xC0,0xA6,Write,ACK
3.616167500000000,717,0xC1,0x80,Read,NAK
3.616719000000000,718,0xC0,0xA6,Write,ACK
3.616939000000000,719,0xC1,0x80,Read,NAK
3.617491000000000,720,0xC0,0xA6,Write,ACK
3.617839000000000,721,0xC1,0x80,Read,NAK
3.618396500000000,722,0xC0,0xA6,Write,ACK
3.618618500000000,723,0xC1,0x80,Read,NAK
3.619170500000000,724,0xC0,0xA6,Write,ACK
3.619392500000000,725,0xC1,0x80,Read,NAK
3.619940000000000,726,0xC0,0xA6,Write,ACK
3.620162000000000,727,0xC1,0x00,Read,NAK
3.620716000000000,728,0xC0,0xA6,Write,ACK
3.620936000000000,729,0xC1,0x00,Read,NAK
3.621485500000000,730,0xC0,0xA6,Write,ACK
3.621839500000000,731,0xC1,0x80,Read,NAK
3.622395500000000,732,0xC0,0xA6,Write,ACK
3.622615500000000,733,0xC1,0x00,Read,NAK
3.623167000000000,734,0xC0,0xA6,Write,ACK
3.623387000000000,735,0xC1,0x00,Read,NAK
3.623937000000000,736,0xC0,0xA6,Write,ACK
3.624159000000000,737,0xC1,0x80,Read,NAK
3.624708500000000,738,0xC0,0xA6,Write,ACK
3.624928500000000,739,0xC1,0x00,Read,NAK
3.625480500000000,740,0xC0,0xA6,Write,ACK
3.625838500000000,741,0xC1,0x00,Read,NAK
3.626398000000000,742,0xC0,0xA6,Write,ACK
3.626618000000000,743,0xC1,0x80,Read,NAK
3.627168000000000,744,0xC0,0xA6,Write,ACK
3.627388000000000,745,0xC1,0x00,Read,NAK
3.627937500000000,746,0xC0,0xA6,Write,ACK
3.628159500000000,747,0xC1,0x80,Read,NAK
3.628709500000000,748,0xC0,0xA6,Write,ACK
3.628929500000000,749,0xC1,0x80,Read,NAK
3.629481500000000,750,0xC0,0xA6,Write,ACK
3.629839000000000,751,0xC1,0x00,Read,NAK
3.630397000000000,752,0xC0,0xA6,Write,ACK
3.630617000000000,753,0xC1,0x00,Read,NAK
3.631165000000000,754,0xC0,0xA6,Write,ACK
3.631384500000000,755,0xC1,0x80,Read,NAK
3.631936500000000,756,0xC0,0xA6,Write,ACK
3.632156500000000,757,0xC1,0x00,Read,NAK
3.632706500000000,758,0xC0,0xA6,Write,ACK
3.632928000000000,759,0xC1,0x00,Read,NAK
3.633478000000000,760,0xC0,0xA6,Write,ACK
3.633838000000000,761,0xC1,0x80,Read,NAK
3.634396000000000,762,0xC0,0xA6,Write,ACK
3.634615500000000,763,0xC1,0x00,Read,NAK
3.635167500000000,764,0xC0,0xA6,Write,ACK
3.635387500000000,765,0xC1,0x00,Read,NAK
3.635937500000000,766,0xC0,0xA6,Write,ACK
3.636159000000000,767,0xC1,0x80,Read,NAK
3.636707000000000,768,0xC0,0xA6,Write,ACK
3.636927000000000,769,0xC1,0x00,Read,NAK
3.637477000000000,770,0xC0,0xA6,Write,ACK
3.637838500000000,771,0xC1,0x80,Read,NAK
3.638396500000000,772,0xC0,0xA6,Write,ACK
3.638616500000000,773,0xC1,0x80,Read,NAK
3.639166500000000,774,0xC0,0xA6,Write,ACK
3.639388000000000,775,0xC1,0x00,Read,NAK
3.639938000000000,776,0xC0,0xA6,Write,ACK
3.640160000000000,777,0xC1,0x00,Read,NAK
3.640710000000000,778,0xC0,0xA6,Write,ACK
3.640929500000000,779,0xC1,0x80,Read,NAK
3.641479500000000,780,0xC0,0xA6,Write,ACK
3.641837500000000,781,0xC1,0x00,Read,NAK
3.642395500000000,782,0xC0,0xA6,Write,ACK
3.642615500000000,783,0xC1,0x00,Read,NAK
3.643165000000000,784,0xC0,0xA6,Write,ACK
3.643387000000000,785,0xC1,0x80,Read,NAK
3.643937000000000,786,0xC0,0xA6,Write,ACK
3.644157000000000,787,0xC1,0x00,Read,NAK
3.644706500000000,788,0xC0,0xA6,Write,ACK
3.644928500000000,789,0xC1,0x00,Read,NAK
3.645478500000000,790,0xC0,0xA6,Write,ACK
3.645838500000000,791,0xC1,0x80,Read,NAK
3.646396000000000,792,0xC0,0xA6,Write,ACK
3.646616000000000,793,0xC1,0x00,Read,NAK
3.647164000000000,794,0xC0,0xA6,Write,ACK
3.647386000000000,795,0xC1,0x00,Read,NAK
3.647935500000000,796,0xC0,0xA6,Write,ACK
3.648157500000000,797,0xC1,0x80,Read,NAK
3.648707500000000,798,0xC0,0xA6,Write,ACK
3.648927500000000,799,0xC1,0x00,Read,NAK
3.649477000000000,800,0xC0,0xA6,Write,ACK
3.649837000000000,801,0xC1,0x00,Read,NAK
3.650395000000000,802,0xC0,0xA6,Write,ACK
3.650615000000000,803,0xC1,0x80,Read,NAK
3.651164500000000,804,0xC0,0xA6,Write,ACK
3.651386500000000,805,0xC1,0x00,Read,NAK
3.651936500000000,806,0xC0,0xA6,Write,ACK
3.652156500000000,807,0xC1,0x80,Read,NAK
3.652708000000000,808,0xC0,0xA6,Write,ACK
3.652928000000000,809,0xC1,0x80,Read,NAK
3.653478000000000,810,0xC0,0xA6,Write,ACK
3.653838000000000,811,0xC1,0x00,Read,NAK
3.654395500000000,812,0xC0,0xA6,Write,ACK
3.654615500000000,813,0xC1,0x00,Read,NAK
3.655165500000000,814,0xC0,0xA6,Write,ACK
3.655387500000000,815,0xC1,0x80,Read,NAK
3.655937000000000,816,0xC0,0xA6,Write,ACK
3.656159000000000,817,0xC1,0x00,Read,NAK
3.656711000000000,818,0xC0,0xA6,Write,ACK
3.656931000000000,819,0xC1,0x00,Read,NAK
3.657481000000000,820,0xC0,0xA6,Write,ACK
3.657836500000000,821,0xC1,0x80,Read,NAK
3.658392500000000,822,0xC0,0xA6,Write,ACK
3.658612500000000,823,0xC1,0x00,Read,NAK
3.659160500000000,824,0xC0,0xA6,Write,ACK
3.659380000000000,825,0xC1,0x00,Read,NAK
3.659930000000000,826,0xC0,0xA6,Write,ACK
3.660152000000000,827,0xC1,0x80,Read,NAK
3.660702000000000,828,0xC0,0xA6,Write,ACK
3.660923500000000,829,0xC1,0x00,Read,NAK
3.661473500000000,830,0xC0,0xA6,Write,ACK
3.661837500000000,831,0xC1,0x00,Read,NAK
3.662393500000000,832,0xC0,0xA6,Write,ACK
3.662613000000000,833,0xC1,0x80,Read,NAK
3.663163000000000,834,0xC0,0xA6,Write,ACK
3.663383000000000,835,0xC1,0x00,Read,NAK
3.663933000000000,836,0xC0,0xA6,Write,ACK
3.664152500000000,837,0xC1,0x00,Read,NAK
3.664704500000000,838,0xC0,0xA6,Write,ACK
3.664926500000000,839,0xC1,0x80,Read,NAK
3.665476500000000,840,0xC0,0xA6,Write,ACK
3.665836000000000,841,0xC1,0x00,Read,NAK
3.666394000000000,842,0xC0,0xA6,Write,ACK
3.666616000000000,843,0xC1,0x00,Read,NAK
3.667166000000000,844,0xC0,0xA6,Write,ACK
3.667385500000000,845,0xC1,0x80,Read,NAK
3.667933500000000,846,0xC0,0xA6,Write,ACK
3.668155500000000,847,0xC1,0x00,Read,NAK
3.668705500000000,848,0xC0,0xA6,Write,ACK
3.668927500000000,849,0xC1,0x00,Read,NAK
3.669477000000000,850,0xC0,0xA6,Write,ACK
3.669837000000000,851,0xC1,0x80,Read,NAK
3.670393000000000,852,0xC0,0xA6,Write,ACK
3.670613000000000,853,0xC1,0x00,Read,NAK
3.671162500000000,854,0xC0,0xA6,Write,ACK
3.671384500000000,855,0xC1,0x00,Read,NAK
3.671934500000000,856,0xC0,0xA6,Write,ACK
3.672156500000000,857,0xC1,0x80,Read,NAK
3.672706000000000,858,0xC0,0xA6,Write,ACK
3.672926000000000,859,0xC1,0x80,Read,NAK
3.673478000000000,860,0xC0,0xA6,Write,ACK
3.673836000000000,861,0xC1,0x00,Read,NAK
3.674391500000000,862,0xC0,0xA6,Write,ACK
3.674611500000000,863,0xC1,0x80,Read,NAK
3.675159500000000,864,0xC0,0xA6,Write,ACK
3.675379500000000,865,0xC1,0x80,Read,NAK
3.675929000000000,866,0xC0,0xA6,Write,ACK
3.676149000000000,867,0xC1,0x80,Read,NAK
3.676699000000000,868,0xC0,0xA6,Write,ACK
3.676919000000000,869,0xC1,0x80,Read,NAK
3.677468500000000,870,0xC0,0xA6,Write,ACK
3.677836500000000,871,0xC1,0x80,Read,NAK
3.678392500000000,872,0xC0,0xA6,Write,ACK
3.678614500000000,873,0xC1,0x00,Read,NAK
3.679164000000000,874,0xC0,0xA6,Write,ACK
3.679384000000000,875,0xC1,0x00,Read,NAK
3.679934000000000,876,0xC0,0xA6,Write,ACK
3.680154000000000,877,0xC1,0x80,Read,NAK
3.680706000000000,878,0xC0,0xA6,Write,ACK
3.680927500000000,879,0xC1,0x00,Read,NAK
3.681479500000000,880,0xC0,0xA6,Write,ACK
3.681835500000000,881,0xC1,0x80,Read,NAK
3.682391500000000,882,0xC0,0xA6,Write,ACK
3.682613000000000,883,0xC1,0x80,Read,NAK
3.683161000000000,884,0xC0,0xA6,Write,ACK
3.683381000000000,885,0xC1,0x00,Read,NAK
3.683933000000000,886,0xC0,0xA6,Write,ACK
3.684154500000000,887,0xC1,0x00,Read,NAK
3.684704500000000,888,0xC0,0xA6,Write,ACK
3.684926500000000,889,0xC1,0x80,Read,NAK
3.685476500000000,890,0xC0,0xA6,Write,ACK
3.685836000000000,891,0xC1,0x00,Read,NAK
3.686392000000000,892,0xC0,0xA6,Write,ACK
3.686612000000000,893,0xC1,0x00,Read,NAK
3.687160000000000,894,0xC0,0xA6,Write,ACK
3.687379500000000,895,0xC1,0x80,Read,NAK
3.687929500000000,896,0xC0,0xA6,Write,ACK
3.688149500000000,897,0xC1,0x00,Read,NAK
3.688697500000000,898,0xC0,0xA6,Write,ACK
3.688917000000000,899,0xC1,0x00,Read,NAK
3.689467000000000,900,0xC0,0xA6,Write,ACK
3.689835000000000,901,0xC1,0x80,Read,NAK
3.690391000000000,902,0xC0,0xA6,Write,ACK
3.690612500000000,903,0xC1,0x00,Read,NAK
3.691162500000000,904,0xC0,0xA6,Write,ACK
3.691384500000000,905,0xC1,0x80,Read,NAK
3.691934500000000,906,0xC0,0xA6,Write,ACK
3.692154000000000,907,0xC1,0x80,Read,NAK
3.692704000000000,908,0xC0,0xA6,Write,ACK
3.692926000000000,909,0xC1,0x00,Read,NAK
3.693476000000000,910,0xC0,0xA6,Write,ACK
3.693836000000000,911,0xC1,0x00,Read,NAK
3.694391500000000,912,0xC0,0xA6,Write,ACK
3.694613500000000,913,0xC1,0x80,Read,NAK
3.695163500000000,914,0xC0,0xA6,Write,ACK
3.695385500000000,915,0xC1,0x00,Read,NAK
3.695935000000000,916,0xC0,0xA6,Write,ACK
3.696157000000000,917,0xC1,0x80,Read,NAK
3.696709000000000,918,0xC0,0xA6,Write,ACK
3.696931000000000,919,0xC1,0x80,Read,NAK
3.697480500000000,920,0xC0,0xA6,Write,ACK
3.697834500000000,921,0xC1,0x00,Read,NAK
3.698392500000000,922,0xC0,0xA6,Write,ACK
3.698612500000000,923,0xC1,0x80,Read,NAK
3.699160000000000,924,0xC0,0xA6,Write,ACK
3.699382000000000,925,0xC1,0x80,Read,NAK
3.699934000000000,926,0xC0,0xA6,Write,ACK
3.700156000000000,927,0xC1,0x00,Read,NAK
3.700705500000000,928,0xC0,0xA6,Write,ACK
3.700925500000000,929,0xC1,0x80,Read,NAK
3.701475500000000,930,0xC0,0xA6,Write,ACK
3.701835500000000,931,0xC1,0x80,Read,NAK
3.702389000000000,932,0xC0,0xA6,Write,ACK
3.702609000000000,933,0xC1,0xA4,Read,NAK
3.703165000000000,934,0x72,0x40,Write,ACK
3.703268000000000,934,0x72,0xC1,Write,ACK
3.703813500000000,935,0x72,0x40,Write,ACK
3.703916500000000,935,0x72,0xC0,Write,ACK
3.730149000000000,936,0x72,0x3D,Write,ACK
3.730252000000000,936,0x72,0x03,Write,ACK
3.730355000000000,936,0x72,0x00,Write,ACK
3.730905000000000,937,0x72,0x1A,Write,ACK
3.731126500000000,938,0x73,0x48,Read,NAK
3.731678500000000,939,0x72,0x1A,Write,ACK
3.731781500000000,939,0x72,0x58,Write,ACK
3.732337500000000,940,0x72,0x1A,Write,ACK
3.732440000000000,940,0x72,0x48,Write,ACK
3.732990000000000,941,0x72,0xBF,Write,ACK
3.733093000000000,941,0x72,0xC1,Write,ACK
3.733753000000000,942,0x72,0xDE,Write,ACK
3.734012500000000,943,0x73,0x00,Read,NAK
3.734570500000000,944,0x72,0xDE,Write,ACK
3.734673500000000,944,0x72,0x00,Write,ACK
3.735215500000000,945,0x72,0x19,Write,ACK
3.735437500000000,946,0x73,0x00,Read,NAK
3.735991000000000,947,0x72,0x19,Write,ACK
3.736094000000000,947,0x72,0x00,Write,ACK
3.736770000000000,948,0x72,0x3D,Write,ACK
3.736992000000000,949,0x73,0x0C,Read,NAK
3.738001500000000,950,0x72,0x60,Write,ACK
3.738223500000000,951,0x73,0x04,Read,NAK
3.738779500000000,952,0x72,0x40,Write,ACK
3.738999500000000,953,0x73,0xC0,Read,NAK
3.739559000000000,954,0x72,0x08,Write,ACK
3.739662000000000,954,0x72,0x60,Write,ACK
3.739765000000000,954,0x72,0x08,Write,ACK
3.739868000000000,954,0x72,0x14,Write,ACK
3.740415500000000,955,0x72,0x08,Write,ACK
3.740635500000000,956,0x73,0x60,Read,ACK
3.740740500000000,956,0x73,0x08,Read,ACK
3.740847500000000,956,0x73,0x14,Read,NAK
3.741417000000000,957,0x72,0x0C,Write,ACK
3.741520000000000,957,0x72,0xB7,Write,ACK
3.742208000000000,958,0x72,0x0D,Write,ACK
3.742311000000000,958,0x72,0x00,Write,ACK
3.742414000000000,958,0x72,0xA8,Write,ACK
3.742516500000000,958,0x72,0x00,Write,ACK
3.742619500000000,958,0x72,0x10,Write,ACK
3.742722500000000,958,0x72,0x00,Write,ACK
3.742825500000000,958,0x72,0x00,Write,ACK
3.742928500000000,958,0x72,0x00,Write,ACK
3.743031000000000,958,0x72,0x00,Write,ACK
3.743134000000000,958,0x72,0x00,Write,ACK
3.743237000000000,958,0x72,0x00,Write,ACK
3.743340000000000,958,0x72,0x00,Write,ACK
3.743442500000000,958,0x72,0x00,Write,ACK
3.743545500000000,958,0x72,0x00,Write,ACK
3.744181500000000,959,0x72,0xB9,Write,ACK
3.744401500000000,960,0x73,0x37,Read,NAK
3.744955500000000,961,0x72,0xB9,Write,ACK
3.745058000000000,961,0x72,0x37,Write,ACK
3.745796000000000,962,0x72,0x00,Write,ACK
3.745901000000000,962,0x72,0x02,Write,ACK
3.746004000000000,962,0x72,0x3A,Write,ACK
3.746106500000000,962,0x72,0x3C,Write,ACK
3.746209500000000,962,0x72,0x00,Write,ACK
3.746312500000000,962,0x72,0x98,Write,ACK
3.746415500000000,962,0x72,0x08,Write,ACK
3.746518500000000,962,0x72,0x65,Write,ACK
3.746621000000000,962,0x72,0x04,Write,ACK
3.747179000000000,963,0x72,0x60,Write,ACK
3.747401000000000,964,0x73,0x04,Read,NAK
3.747957000000000,965,0x72,0x60,Write,ACK
3.748059500000000,965,0x72,0x04,Write,ACK
3.748629500000000,966,0x72,0x60,Write,ACK
3.748851500000000,967,0x73,0x04,Read,NAK
3.749409500000000,968,0x72,0x40,Write,ACK
3.749723000000000,969,0x73,0xC0,Read,NAK
3.750295000000000,970,0x72,0x08,Write,ACK
3.750398000000000,970,0x72,0x60,Write,ACK
3.750501000000000,970,0x72,0x08,Write,ACK
3.750604000000000,970,0x72,0x14,Write,ACK
3.751147500000000,971,0x72,0x08,Write,ACK
3.751367500000000,972,0x73,0x60,Read,ACK
3.751472500000000,972,0x73,0x08,Read,ACK
3.751579500000000,972,0x73,0x14,Read,NAK
3.752145000000000,973,0x72,0x0C,Write,ACK
3.752248000000000,973,0x72,0xB7,Write,ACK
3.752800000000000,974,0x72,0x0D,Write,ACK
3.752903000000000,974,0x72,0x00,Write,ACK
3.753005500000000,974,0x72,0xA8,Write,ACK
3.753108500000000,974,0x72,0x00,Write,ACK
3.753211500000000,974,0x72,0x10,Write,ACK
3.753314500000000,974,0x72,0x00,Write,ACK
3.753417500000000,974,0x72,0x00,Write,ACK
3.753520000000000,974,0x72,0x00,Write,ACK
3.753729000000000,974,0x72,0x00,Write,ACK
3.753832000000000,974,0x72,0x00,Write,ACK
3.753935000000000,974,0x72,0x00,Write,ACK
3.754038000000000,974,0x72,0x00,Write,ACK
3.754140500000000,974,0x72,0x00,Write,ACK
3.754243500000000,974,0x72,0x00,Write,ACK
3.762469000000000,975,0x72,0x3D,Write,ACK
3.762689000000000,976,0x73,0x0C,Read,ACK
3.762796000000000,976,0x73,0x00,Read,NAK
3.763519500000000,977,0x72,0x3D,Write,ACK
3.763739500000000,978,0x73,0x0C,Read,NAK
3.767327500000000,979,0xC0,0xA6,Write,ACK
3.767631000000000,980,0xC1,0xA4,Read,ACK
3.767736000000000,980,0xC1,0x00,Read,NAK
3.768296000000000,981,0xC0,0xA6,Write,ACK
3.768399000000000,981,0xC0,0xA4,Write,ACK
3.768501500000000,981,0xC0,0x00,Write,ACK
3.770613500000000,982,0x72,0x3D,Write,ACK
3.770835500000000,983,0x73,0x0C,Read,NAK
3.786770500000000,984,0x72,0xBF,Write,ACK
3.786873500000000,984,0x72,0x04,Write,ACK
3.787433000000000,985,0x72,0xBF,Write,ACK
3.787536000000000,985,0x72,0x05,Write,ACK
3.789410000000000,986,0x72,0xBF,Write,ACK
3.789513000000000,986,0x72,0x21,Write,ACK
3.790200500000000,987,0x72,0xBF,Write,ACK
3.790422500000000,988,0x73,0xC1,Read,NAK
3.790980500000000,989,0x72,0xBF,Write,ACK
3.791083500000000,989,0x72,0xC1,Write,ACK
3.791631000000000,990,0x72,0xC0,Write,ACK
3.791734000000000,990,0x72,0x55,Write,ACK
3.792282000000000,991,0x72,0xC1,Write,ACK
3.792385000000000,991,0x72,0x01,Write,ACK
3.792488000000000,991,0x72,0x19,Write,ACK
3.793039500000000,992,0x72,0xC3,Write,ACK
3.793142500000000,992,0x72,0x3E,Write,ACK
3.793948500000000,993,0x72,0xC4,Write,ACK
3.794051500000000,993,0x72,0x16,Write,ACK
3.794154000000000,993,0x72,0xF3,Write,ACK
3.794257000000000,993,0x72,0x0E,Write,ACK
3.794360000000000,993,0x72,0x81,Write,ACK
3.794463000000000,993,0x72,0x11,Write,ACK
3.794566000000000,993,0x72,0x2D,Write,ACK
3.794668500000000,993,0x72,0x4F,Write,ACK
3.794771500000000,993,0x72,0x00,Write,ACK
3.794874500000000,993,0x72,0x00,Write,ACK
3.794977500000000,993,0x72,0x00,Write,ACK
3.795080000000000,993,0x72,0x00,Write,ACK
3.795183000000000,993,0x72,0x00,Write,ACK
3.795286000000000,993,0x72,0x00,Write,ACK
3.795389000000000,993,0x72,0x00,Write,ACK
3.795492000000000,993,0x72,0x00,Write,ACK
3.795594500000000,993,0x72,0x00,Write,ACK
3.795697500000000,993,0x72,0x00,Write,ACK
3.795800500000000,993,0x72,0x00,Write,ACK
3.795903500000000,993,0x72,0x00,Write,ACK
3.796006500000000,993,0x72,0x00,Write,ACK
3.796109000000000,993,0x72,0x00,Write,ACK
3.796212000000000,993,0x72,0x00,Write,ACK
3.796315000000000,993,0x72,0x00,Write,ACK
3.796418000000000,993,0x72,0x00,Write,ACK
3.796521000000000,993,0x72,0x00,Write,ACK
3.797068500000000,994,0x72,0xDE,Write,ACK
3.797171500000000,994,0x72,0x00,Write,ACK
3.797983500000000,995,0x72,0xC0,Write,ACK
3.798086500000000,995,0x72,0x83,Write,ACK
3.798644000000000,996,0x72,0xBF,Write,ACK
3.798747000000000,996,0x72,0x06,Write,ACK
3.800159000000000,997,0x72,0x3D,Write,ACK
3.800378500000000,998,0x73,0x0C,Read,ACK
3.800485500000000,998,0x73,0x00,Read,NAK
3.801165500000000,999,0x72,0x3D,Write,ACK
3.801387500000000,1000,0x73,0x0C,Read,NAK
3.819328500000000,1001,0x72,0x3D,Write,ACK
3.819548000000000,1002,0x73,0x0C,Read,NAK
3.831933500000000,1003,0x72,0x3D,Write,ACK
3.832155500000000,1004,0x73,0x0C,Read,ACK
3.832262500000000,1004,0x73,0x00,Read,NAK
3.832940000000000,1005,0x72,0x3D,Write,ACK
3.833160000000000,1006,0x73,0x0C,Read,NAK
3.843171500000000,1007,0x72,0x1A,Write,ACK
3.843393500000000,1008,0x73,0x48,Read,NAK
3.843967000000000,1009,0x72,0xBF,Write,ACK
3.844070000000000,1009,0x72,0xC1,Write,ACK
3.844614000000000,1010,0x72,0xDE,Write,ACK
3.844834000000000,1011,0x73,0x00,Read,NAK
3.845387500000000,1012,0x72,0xDE,Write,ACK
3.845490500000000,1012,0x72,0x00,Write,ACK
3.846190500000000,1013,0x72,0x19,Write,ACK
3.846412500000000,1014,0x73,0x00,Read,NAK
3.846966000000000,1015,0x72,0x19,Write,ACK
3.847069000000000,1015,0x72,0x00,Write,ACK
3.863316000000000,1016,0x72,0x3D,Write,ACK
3.863536000000000,1017,0x73,0x0C,Read,NAK
3.864270000000000,1018,0xC0,0xA6,Write,ACK
3.864490000000000,1019,0xC1,0x80,Read,ACK
3.864596500000000,1019,0xC1,0x00,Read,NAK
3.866466500000000,1020,0x72,0x3D,Write,ACK
3.866686500000000,1021,0x73,0x0C,Read,ACK
3.866793500000000,1021,0x73,0x00,Read,NAK
3.875258500000000,1022,0x72,0x3D,Write,ACK
3.875480500000000,1023,0x73,0x0C,Read,NAK
3.896007500000000,1024,0x72,0x3D,Write,ACK
3.896229500000000,1025,0x73,0x0C,Read,NAK
3.907128500000000,1026,0x72,0x3D,Write,ACK
3.907348500000000,1027,0x73,0x0C,Read,ACK
3.907453500000000,1027,0x73,0x00,Read,NAK
3.920042500000000,1028,0x72,0x3D,Write,ACK
3.920262500000000,1029,0x73,0x0C,Read,NAK
3.931256000000000,1030,0x72,0x3D,Write,ACK
3.931475500000000,1031,0x73,0x0C,Read,NAK
3.951126500000000,1032,0x72,0x3D,Write,ACK
3.951346500000000,1033,0x73,0x0C,Read,ACK
3.951453500000000,1033,0x73,0x00,Read,NAK
3.952131000000000,1034,0x72,0x3D,Write,ACK
3.952353000000000,1035,0x73,0x0C,Read,NAK
3.964124500000000,1036,0xC0,0xA6,Write,ACK
3.964344500000000,1037,0xC1,0x80,Read,ACK
3.964451000000000,1037,0xC1,0x00,Read,NAK
3.971358500000000,1038,0x72,0x3D,Write,ACK
3.971578500000000,1039,0x73,0x0C,Read,NAK
3.979112000000000,1040,0x72,0x3D,Write,ACK
3.979332000000000,1041,0x73,0x0C,Read,ACK
3.979439000000000,1041,0x73,0x00,Read,NAK
3.980281000000000,1042,0x72,0xB9,Write,ACK
3.980502500000000,1043,0x73,0x37,Read,NAK
3.981056500000000,1044,0x72,0xB9,Write,ACK
3.981159500000000,1044,0x72,0x37,Write,ACK
3.981971500000000,1045,0x72,0x00,Write,ACK
3.982074000000000,1045,0x72,0x8C,Write,ACK
3.982177000000000,1045,0x72,0x0A,Write,ACK
3.982280000000000,1045,0x72,0x3C,Write,ACK
3.982383000000000,1045,0x72,0x00,Write,ACK
3.982485500000000,1045,0x72,0x5A,Write,ACK
3.982588500000000,1045,0x72,0x03,Write,ACK
3.982691500000000,1045,0x72,0x0D,Write,ACK
3.982794500000000,1045,0x72,0x02,Write,ACK
3.983338500000000,1046,0x72,0x60,Write,ACK
3.983560000000000,1047,0x73,0x04,Read,NAK
3.984114000000000,1048,0x72,0x60,Write,ACK
3.984217000000000,1048,0x72,0x04,Write,ACK
3.984781000000000,1049,0x72,0x60,Write,ACK
3.985000500000000,1050,0x73,0x04,Read,NAK
3.985750500000000,1051,0x72,0x40,Write,ACK
3.985970500000000,1052,0x73,0xC0,Read,NAK
3.986536500000000,1053,0x72,0xBD,Write,ACK
3.986639000000000,1053,0x72,0x4B,Write,ACK
3.987179000000000,1054,0x72,0xBE,Write,ACK
3.987282000000000,1054,0x72,0x00,Write,ACK
3.987824000000000,1055,0x72,0xBD,Write,ACK
3.987927000000000,1055,0x72,0x4C,Write,ACK
3.988468500000000,1056,0x72,0xBE,Write,ACK
3.988571500000000,1056,0x72,0x00,Write,ACK
3.989111500000000,1057,0x72,0xBD,Write,ACK
3.989214500000000,1057,0x72,0x4D,Write,ACK
3.989994000000000,1058,0x72,0xBE,Write,ACK
3.990097000000000,1058,0x72,0x00,Write,ACK
3.990649000000000,1059,0x72,0x08,Write,ACK
3.990752000000000,1059,0x72,0x60,Write,ACK
3.990854500000000,1059,0x72,0x08,Write,ACK
3.990957500000000,1059,0x72,0x04,Write,ACK
3.991499500000000,1060,0x72,0x08,Write,ACK
3.991719500000000,1061,0x73,0x60,Read,ACK
3.991824500000000,1061,0x73,0x08,Read,ACK
3.991931000000000,1061,0x73,0x04,Read,NAK
3.992495000000000,1062,0x72,0x0C,Write,ACK
3.992598000000000,1062,0x72,0x6F,Write,ACK
3.993148000000000,1063,0x72,0x0D,Write,ACK
3.993250500000000,1063,0x72,0x00,Write,ACK
3.993353500000000,1063,0x72,0x00,Write,ACK
3.993456500000000,1063,0x72,0x00,Write,ACK
3.993705500000000,1063,0x72,0x00,Write,ACK
3.993808000000000,1063,0x72,0x00,Write,ACK
3.993911000000000,1063,0x72,0x00,Write,ACK
3.994014000000000,1063,0x72,0x00,Write,ACK
3.994117000000000,1063,0x72,0x00,Write,ACK
3.994220000000000,1063,0x72,0x00,Write,ACK
3.994322500000000,1063,0x72,0x00,Write,ACK
3.994425500000000,1063,0x72,0x00,Write,ACK
3.994528500000000,1063,0x72,0x00,Write,ACK
3.994631500000000,1063,0x72,0x00,Write,ACK
4.003205000000000,1064,0x72,0x3D,Write,ACK
4.003424500000000,1065,0x73,0x0C,Read,NAK
4.004062500000000,1066,0x72,0x3D,Write,ACK
4.004282500000000,1067,0x73,0x0C,Read,NAK
4.009022000000000,1068,0x72,0x3D,Write,ACK
4.009242000000000,1069,0x73,0x0C,Read,ACK
4.009349000000000,1069,0x73,0x00,Read,NAK
4.019980500000000,1070,0x72,0x3D,Write,ACK
4.020202000000000,1071,0x73,0x0C,Read,NAK
4.048778500000000,1072,0x72,0x3D,Write,ACK
4.048998500000000,1073,0x73,0x0C,Read,ACK
4.049105500000000,1073,0x73,0x00,Read,NAK
4.050063000000000,1074,0x72,0x3D,Write,ACK
4.050285000000000,1075,0x73,0x0C,Read,NAK
4.059264500000000,1076,0x72,0x3D,Write,ACK
4.059486500000000,1077,0x73,0x0C,Read,NAK
4.063026000000000,1078,0x72,0xB9,Write,ACK
4.063308000000000,1079,0x73,0x37,Read,NAK
4.063864000000000,1080,0x72,0xB9,Write,ACK
4.063966500000000,1080,0x72,0x36,Write,ACK
4.064506500000000,1081,0x72,0x00,Write,ACK
4.064609500000000,1081,0x72,0x8C,Write,ACK
4.064712500000000,1081,0x72,0x0A,Write,ACK
4.064815500000000,1081,0x72,0x32,Write,ACK
4.064918000000000,1081,0x72,0x00,Write,ACK
4.065021000000000,1081,0x72,0x60,Write,ACK
4.065124000000000,1081,0x72,0x03,Write,ACK
4.065227000000000,1081,0x72,0x71,Write,ACK
4.065330000000000,1081,0x72,0x02,Write,ACK
4.066261500000000,1082,0x72,0x60,Write,ACK
4.066483500000000,1083,0x73,0x04,Read,NAK
4.067037500000000,1084,0x72,0x60,Write,ACK
4.067140500000000,1084,0x72,0x04,Write,ACK
4.067712000000000,1085,0x72,0x60,Write,ACK
4.067932000000000,1086,0x73,0x04,Read,NAK
4.068486000000000,1087,0x72,0x40,Write,ACK
4.068708000000000,1088,0x73,0xC0,Read,NAK
4.069271500000000,1089,0x72,0xBD,Write,ACK
4.069374500000000,1089,0x72,0x4B,Write,ACK
4.070130500000000,1090,0x72,0xBE,Write,ACK
4.070233500000000,1090,0x72,0x10,Write,ACK
4.070773000000000,1091,0x72,0xBD,Write,ACK
4.070876000000000,1091,0x72,0x4C,Write,ACK
4.071418000000000,1092,0x72,0xBE,Write,ACK
4.071521000000000,1092,0x72,0x10,Write,ACK
4.072060500000000,1093,0x72,0xBD,Write,ACK
4.072163500000000,1093,0x72,0x4D,Write,ACK
4.072705500000000,1094,0x72,0xBE,Write,ACK
4.072808500000000,1094,0x72,0x10,Write,ACK
4.073360000000000,1095,0x72,0x08,Write,ACK
4.073463000000000,1095,0x72,0x60,Write,ACK
4.073700000000000,1095,0x72,0x08,Write,ACK
4.073803000000000,1095,0x72,0x04,Write,ACK
4.074353000000000,1096,0x72,0x08,Write,ACK
4.074572500000000,1097,0x73,0x60,Read,ACK
4.074677500000000,1097,0x73,0x08,Read,ACK
4.074784500000000,1097,0x73,0x04,Read,NAK
4.075348500000000,1098,0x72,0x0C,Write,ACK
4.075451000000000,1098,0x72,0x06,Write,ACK
4.075999000000000,1099,0x72,0x0D,Write,ACK
4.076102000000000,1099,0x72,0x00,Write,ACK
4.076205000000000,1099,0x72,0x58,Write,ACK
4.076308000000000,1099,0x72,0x00,Write,ACK
4.076410500000000,1099,0x72,0x11,Write,ACK
4.076513500000000,1099,0x72,0x00,Write,ACK
4.076616500000000,1099,0x72,0x00,Write,ACK
4.076719500000000,1099,0x72,0x00,Write,ACK
4.076822000000000,1099,0x72,0x00,Write,ACK
4.076925000000000,1099,0x72,0x00,Write,ACK
4.077028000000000,1099,0x72,0x00,Write,ACK
4.077131000000000,1099,0x72,0x00,Write,ACK
4.077234000000000,1099,0x72,0x00,Write,ACK
4.077336500000000,1099,0x72,0x00,Write,ACK
4.093797500000000,1100,0x72,0x3D,Write,ACK
4.094017500000000,1101,0x73,0x0C,Read,ACK
4.094122500000000,1101,0x73,0x00,Read,NAK
4.094804500000000,1102,0x72,0x3D,Write,ACK
4.095026500000000,1103,0x73,0x0C,Read,NAK
4.095766000000000,1104,0xC0,0xA6,Write,ACK
4.095986000000000,1105,0xC1,0x80,Read,ACK
4.096091000000000,1105,0xC1,0x00,Read,NAK
4.096683000000000,1106,0x72,0x60,Write,ACK
4.096902500000000,1107,0x73,0x04,Read,NAK
4.097458500000000,1108,0x72,0x40,Write,ACK
4.097814500000000,1109,0x73,0xC0,Read,NAK
4.098380500000000,1110,0x72,0x08,Write,ACK
4.098483000000000,1110,0x72,0x60,Write,ACK
4.098586000000000,1110,0x72,0x08,Write,ACK
4.098689000000000,1110,0x72,0x04,Write,ACK
4.099231000000000,1111,0x72,0x08,Write,ACK
4.099450500000000,1112,0x73,0x60,Read,ACK
4.099555500000000,1112,0x73,0x08,Read,ACK
4.099662500000000,1112,0x73,0x04,Read,NAK
4.100216500000000,1113,0x72,0x19,Write,ACK
4.100436500000000,1114,0x73,0x00,Read,NAK
4.100992000000000,1115,0x72,0x19,Write,ACK
4.101095000000000,1115,0x72,0x00,Write,ACK
4.101917000000000,1116,0x72,0xB9,Write,ACK
4.102137000000000,1117,0x73,0x36,Read,NAK
4.102692500000000,1118,0x72,0xB9,Write,ACK
4.102795500000000,1118,0x72,0x36,Write,ACK
4.103343500000000,1119,0x72,0x00,Write,ACK
4.103446500000000,1119,0x72,0x8C,Write,ACK
4.103549000000000,1119,0x72,0x0A,Write,ACK
4.103652000000000,1119,0x72,0x32,Write,ACK
4.103755000000000,1119,0x72,0x00,Write,ACK
4.103858000000000,1119,0x72,0x60,Write,ACK
4.103961000000000,1119,0x72,0x03,Write,ACK
4.104063500000000,1119,0x72,0x71,Write,ACK
4.104166500000000,1119,0x72,0x02,Write,ACK
4.104712500000000,1120,0x72,0x60,Write,ACK
4.104932500000000,1121,0x73,0x04,Read,NAK
4.105488000000000,1122,0x72,0x60,Write,ACK
4.105709000000000,1122,0x72,0x04,Write,ACK
4.106279000000000,1123,0x72,0x60,Write,ACK
4.106499000000000,1124,0x73,0x04,Read,NAK
4.107054500000000,1125,0x72,0x40,Write,ACK
4.107274500000000,1126,0x73,0xC0,Read,NAK
4.107838500000000,1127,0x72,0x08,Write,ACK
4.107941500000000,1127,0x72,0x60,Write,ACK
4.108044500000000,1127,0x72,0x08,Write,ACK
4.108147000000000,1127,0x72,0x04,Write,ACK
4.108691000000000,1128,0x72,0x08,Write,ACK
4.108911000000000,1129,0x73,0x60,Read,ACK
4.109016000000000,1129,0x73,0x08,Read,ACK
4.109122500000000,1129,0x73,0x04,Read,NAK
4.109962500000000,1130,0x72,0x0C,Write,ACK
4.110065500000000,1130,0x72,0x06,Write,ACK
4.110617500000000,1131,0x72,0x0D,Write,ACK
4.110720000000000,1131,0x72,0x00,Write,ACK
4.110823000000000,1131,0x72,0x58,Write,ACK
4.110926000000000,1131,0x72,0x00,Write,ACK
4.111029000000000,1131,0x72,0x11,Write,ACK
4.111132000000000,1131,0x72,0x00,Write,ACK
4.111234500000000,1131,0x72,0x00,Write,ACK
4.111337500000000,1131,0x72,0x00,Write,ACK
4.111440500000000,1131,0x72,0x00,Write,ACK
4.111543500000000,1131,0x72,0x00,Write,ACK
4.111646500000000,1131,0x72,0x00,Write,ACK
4.111749000000000,1131,0x72,0x00,Write,ACK
4.111852000000000,1131,0x72,0x00,Write,ACK
4.111955000000000,1131,0x72,0x00,Write,ACK
4.112521000000000,1132,0x72,0x1A,Write,ACK
4.112742500000000,1133,0x73,0x48,Read,NAK
4.113294500000000,1134,0x72,0x1A,Write,ACK
4.113397500000000,1134,0x72,0x40,Write,ACK
4.116227000000000,1135,0x72,0x3D,Write,ACK
4.116449000000000,1136,0x73,0x0C,Read,NAK
4.120329000000000,1137,0x72,0x3D,Write,ACK
4.120616500000000,1138,0x73,0x0C,Read,ACK
4.120723500000000,1138,0x73,0x00,Read,NAK
4.121401500000000,1139,0x72,0x3D,Write,ACK
4.121843500000000,1140,0x73,0x0C,Read,NAK
4.144872000000000,1141,0x72,0x3D,Write,ACK
4.145094000000000,1142,0x73,0x0C,Read,NAK
4.150341500000000,1143,0x72,0x3D,Write,ACK
4.150561500000000,1144,0x73,0x0C,Read,ACK
4.150668500000000,1144,0x73,0x00,Read,NAK
4.160079500000000,1145,0x72,0x3D,Write,ACK
4.160301500000000,1146,0x73,0x0C,Read,NAK
4.172121000000000,1147,0x72,0x3D,Write,ACK
4.172343000000000,1148,0x73,0x0C,Read,NAK
4.192009500000000,1149,0x72,0x3D,Write,ACK
4.192229500000000,1150,0x73,0x0C,Read,ACK
4.192334500000000,1150,0x73,0x00,Read,NAK
4.193014500000000,1151,0x72,0x3D,Write,ACK
4.193236000000000,1152,0x73,0x0C,Read,NAK
4.194206000000000,1153,0xC0,0xA6,Write,ACK
4.194426000000000,1154,0xC1,0x80,Read,ACK
4.194531000000000,1154,0xC1,0x00,Read,NAK
4.224773000000000,1155,0x72,0x3D,Write,ACK
4.224993000000000,1156,0x73,0x0C,Read,ACK
4.225098000000000,1156,0x73,0x00,Read,NAK
4.226057500000000,1157,0x72,0x3D,Write,ACK
4.226279500000000,1158,0x73,0x0C,Read,NAK
4.226919500000000,1159,0x72,0x3D,Write,ACK
4.227139500000000,1160,0x73,0x0C,Read,NAK
4.256085500000000,1161,0x72,0x3D,Write,ACK
4.256307500000000,1162,0x73,0x0C,Read,NAK
4.258253500000000,1163,0x72,0x3D,Write,ACK
4.258473500000000,1164,0x73,0x0C,Read,ACK
4.258580000000000,1164,0x73,0x00,Read,NAK
4.273385500000000,1165,0x72,0x3D,Write,ACK
4.273701000000000,1166,0x73,0x0C,Read,NAK
4.274351000000000,1167,0x72,0x3D,Write,ACK
4.274571000000000,1168,0x73,0x0C,Read,NAK
4.288804000000000,1169,0x72,0x3D,Write,ACK
4.289024000000000,1170,0x73,0x0C,Read,ACK
4.289131000000000,1170,0x73,0x00,Read,NAK
4.300078000000000,1171,0x72,0x3D,Write,ACK
4.300298000000000,1172,0x73,0x0C,Read,NAK
4.301030000000000,1173,0xC0,0xA6,Write,ACK
4.301250000000000,1174,0xC1,0x80,Read,ACK
4.301354500000000,1174,0xC1,0x00,Read,NAK
4.321273500000000,1175,0x72,0x3D,Write,ACK
4.321687500000000,1176,0x73,0x0C,Read,ACK
4.321792500000000,1176,0x73,0x00,Read,NAK
4.322480000000000,1177,0x72,0x3D,Write,ACK
4.322700000000000,1178,0x73,0x0C,Read,NAK
4.323840000000000,1179,0x72,0x3D,Write,ACK
4.324060000000000,1180,0x73,0x0C,Read,NAK
4.351982500000000,1181,0x72,0x3D,Write,ACK
4.352202000000000,1182,0x73,0x0C,Read,ACK
4.352309000000000,1182,0x73,0x00,Read,NAK
4.352989000000000,1183,0x72,0x3D,Write,ACK
4.353209000000000,1184,0x73,0x0C,Read,NAK
4.369380000000000,1185,0x72,0x3D,Write,ACK
4.369695500000000,1186,0x73,0x0C,Read,NAK
4.370707500000000,1187,0x72,0x3D,Write,ACK
4.370927500000000,1188,0x73,0x0C,Read,ACK
4.371032500000000,1188,0x73,0x00,Read,NAK
4.380899500000000,1189,0x72,0x3D,Write,ACK
4.381119500000000,1190,0x73,0x0C,Read,NAK
4.400884500000000,1191,0x72,0x3D,Write,ACK
4.401104500000000,1192,0x73,0x0C,Read,NAK
4.402072000000000,1193,0xC0,0xA6,Write,ACK
4.402292000000000,1194,0xC1,0x80,Read,ACK
4.402399000000000,1194,0xC1,0x00,Read,NAK
4.411986500000000,1195,0x72,0x3D,Write,ACK
4.412206500000000,1196,0x73,0x0C,Read,ACK
4.412313000000000,1196,0x73,0x00,Read,NAK
4.428066000000000,1197,0x72,0x3D,Write,ACK
4.428288000000000,1198,0x73,0x0C,Read,NAK
4.430388000000000,1199,0x72,0x3D,Write,ACK
4.430610000000000,1200,0x73,0x0C,Read,NAK
4.448005000000000,1201,0x72,0x3D,Write,ACK
4.448224500000000,1202,0x73,0x0C,Read,ACK
4.448329500000000,1202,0x73,0x00,Read,NAK
4.450435500000000,1203,0x72,0x3D,Write,ACK
4.450655000000000,1204,0x73,0x0C,Read,NAK
4.479975500000000,1205,0x72,0x3D,Write,ACK
4.480195500000000,1206,0x73,0x0C,Read,ACK
4.480302500000000,1206,0x73,0x00,Read,NAK
4.480980000000000,1207,0x72,0x3D,Write,ACK
4.481200000000000,1208,0x73,0x0C,Read,NAK
4.483382000000000,1209,0x72,0x3D,Write,ACK
4.483602000000000,1210,0x73,0x0C,Read,NAK
4.508756500000000,1211,0x72,0x3D,Write,ACK
4.508976000000000,1212,0x73,0x0C,Read,ACK
4.509083000000000,1212,0x73,0x00,Read,NAK
4.510047000000000,1213,0x72,0x3D,Write,ACK
4.510269000000000,1214,0x73,0x0C,Read,NAK
4.511002500000000,1215,0xC0,0xA6,Write,ACK
4.511222500000000,1216,0xC1,0x80,Read,ACK
4.511327500000000,1216,0xC1,0x00,Read,NAK
4.532850500000000,1217,0x72,0x3D,Write,ACK
4.533072000000000,1218,0x73,0x0C,Read,NAK
4.538310000000000,1219,0x72,0x3D,Write,ACK
4.538529500000000,1220,0x73,0x0C,Read,ACK
4.538636500000000,1220,0x73,0x00,Read,NAK
4.539364500000000,1221,0x72,0x3D,Write,ACK
4.539586500000000,1222,0x73,0x0C,Read,NAK
4.553409500000000,1223,0x72,0x3D,Write,ACK
4.553793500000000,1224,0x73,0x0C,Read,NAK
4.567972500000000,1225,0x72,0x3D,Write,ACK
4.568192500000000,1226,0x73,0x0C,Read,ACK
4.568299500000000,1226,0x73,0x00,Read,NAK
4.580844500000000,1227,0x72,0x3D,Write,ACK
4.581064500000000,1228,0x73,0x0C,Read,NAK
4.596119500000000,1229,0x72,0x3D,Write,ACK
4.596339500000000,1230,0x73,0x0C,Read,NAK
4.601075000000000,1231,0x72,0x3D,Write,ACK
4.601295000000000,1232,0x73,0x0C,Read,ACK
4.601400000000000,1232,0x73,0x00,Read,NAK
4.602451500000000,1233,0x72,0x3D,Write,ACK
4.602673500000000,1234,0x73,0x0C,Read,NAK
4.616257000000000,1235,0xC0,0xA6,Write,ACK
4.616476500000000,1236,0xC1,0x80,Read,ACK
4.616583500000000,1236,0xC1,0x00,Read,NAK
4.636028500000000,1237,0x72,0x3D,Write,ACK
4.636248500000000,1238,0x73,0x0C,Read,ACK
4.636353000000000,1238,0x73,0x00,Read,NAK
4.637035000000000,1239,0x72,0x3D,Write,ACK
4.637255000000000,1240,0x73,0x0C,Read,NAK
4.652168000000000,1241,0x72,0x3D,Write,ACK
4.652390000000000,1242,0x73,0x0C,Read,NAK
4.676812500000000,1243,0x72,0x3D,Write,ACK
4.677032500000000,1244,0x73,0x0C,Read,ACK
4.677137500000000,1244,0x73,0x00,Read,NAK
4.678101000000000,1245,0x72,0x3D,Write,ACK
4.678321000000000,1246,0x73,0x0C,Read,NAK
4.712015000000000,1247,0x72,0x3D,Write,ACK
4.712235000000000,1248,0x73,0x0C,Read,ACK
4.712342000000000,1248,0x73,0x00,Read,NAK
4.713020000000000,1249,0x72,0x3D,Write,ACK
4.713240000000000,1250,0x73,0x0C,Read,NAK
4.714115500000000,1251,0x72,0x3D,Write,ACK
4.714337500000000,1252,0x73,0x0C,Read,NAK
4.728542500000000,1253,0xC0,0xA6,Write,ACK
4.728762500000000,1254,0xC1,0x80,Read,ACK
4.728869500000000,1254,0xC1,0x00,Read,NAK
4.730889000000000,1255,0x72,0x3D,Write,ACK
4.731111000000000,1256,0x73,0x0C,Read,NAK
4.732905000000000,1257,0x72,0x3D,Write,ACK
4.733125000000000,1258,0x73,0x0C,Read,ACK
4.733229500000000,1258,0x73,0x00,Read,NAK
4.755166500000000,1259,0x72,0x3D,Write,ACK
4.755386500000000,1260,0x73,0x0C,Read,NAK
4.767217500000000,1261,0x72,0x3D,Write,ACK
4.767437500000000,1262,0x73,0x0C,Read,ACK
4.767544500000000,1262,0x73,0x00,Read,NAK
4.768272000000000,1263,0x72,0x3D,Write,ACK
4.768494000000000,1264,0x73,0x0C,Read,NAK
4.774493500000000,1265,0x72,0x3D,Write,ACK
4.774715500000000,1266,0x73,0x0C,Read,NAK
4.808797500000000,1267,0x72,0x3D,Write,ACK
4.809017500000000,1268,0x73,0x0C,Read,ACK
4.809124500000000,1268,0x73,0x00,Read,NAK
4.810084500000000,1269,0x72,0x3D,Write,ACK
4.810304000000000,1270,0x73,0x0C,Read,NAK
4.824171500000000,1271,0x72,0x3D,Write,ACK
4.824391500000000,1272,0x73,0x0C,Read,NAK
4.830445000000000,1273,0x72,0x3D,Write,ACK
4.830666500000000,1274,0x73,0x0C,Read,NAK
4.831402500000000,1275,0xC0,0xA6,Write,ACK
4.831622500000000,1276,0xC1,0x80,Read,ACK
4.831729500000000,1276,0xC1,0x00,Read,NAK
4.833399000000000,1277,0x72,0x3D,Write,ACK
4.833777000000000,1278,0x73,0x0C,Read,ACK
4.833884000000000,1278,0x73,0x00,Read,NAK
4.868014000000000,1279,0x72,0x3D,Write,ACK
4.868234000000000,1280,0x73,0x0C,Read,ACK
4.868339000000000,1280,0x73,0x00,Read,NAK
4.869014500000000,1281,0x72,0x3D,Write,ACK
4.869236500000000,1282,0x73,0x0C,Read,NAK
4.871434500000000,1283,0x72,0x3D,Write,ACK
4.871656000000000,1284,0x73,0x0C,Read,NAK
4.895851000000000,1285,0x72,0x3D,Write,ACK
4.896071000000000,1286,0x73,0x0C,Read,ACK
4.896177500000000,1286,0x73,0x00,Read,NAK
4.896851500000000,1287,0x72,0x3D,Write,ACK
4.897073500000000,1288,0x73,0x0C,Read,NAK
4.932001500000000,1289,0x72,0x3D,Write,ACK
4.932221500000000,1290,0x73,0x0C,Read,ACK
4.932328000000000,1290,0x73,0x00,Read,NAK
4.933000000000000,1291,0x72,0x3D,Write,ACK
4.933220000000000,1292,0x73,0x0C,Read,NAK
4.934098000000000,1293,0x72,0x3D,Write,ACK
4.934319500000000,1294,0x73,0x0C,Read,NAK
4.940077500000000,1295,0xC0,0xA6,Write,ACK
4.940297000000000,1296,0xC1,0x80,Read,ACK
4.940402000000000,1296,0xC1,0x00,Read,NAK
4.955999000000000,1297,0x72,0x3D,Write,ACK
4.956219000000000,1298,0x73,0x0C,Read,ACK
4.956324000000000,1298,0x73,0x00,Read,NAK
4.956994000000000,1299,0x72,0x3D,Write,ACK
4.957213500000000,1300,0x73,0x0C,Read,NAK
4.979154500000000,1301,0x72,0x3D,Write,ACK
4.979374500000000,1302,0x73,0x0C,Read,NAK
4.980014000000000,1303,0x72,0x3D,Write,ACK
4.980234000000000,1304,0x73,0x0C,Read,NAK
4.990301500000000,1305,0x72,0x3D,Write,ACK
4.990521500000000,1306,0x73,0x0C,Read,ACK
4.990626000000000,1306,0x73,0x00,Read,NAK
4.994124000000000,1307,0x72,0x3D,Write,ACK
4.994344000000000,1308,0x73,0x0C,Read,NAK
5.032012000000000,1309,0x72,0x3D,Write,ACK
5.032231500000000,1310,0x73,0x0C,Read,ACK
5.032338500000000,1310,0x73,0x00,Read,NAK
5.033012500000000,1311,0x72,0x3D,Write,ACK
5.033234500000000,1312,0x73,0x0C,Read,NAK
5.048145500000000,1313,0x72,0x3D,Write,ACK
5.048367500000000,1314,0x73,0x0C,Read,NAK
5.051971000000000,1315,0xC0,0xA6,Write,ACK
5.052273000000000,1316,0xC1,0x80,Read,ACK
5.052380000000000,1316,0xC1,0x00,Read,NAK
5.055263500000000,1317,0x72,0x3D,Write,ACK
5.055485500000000,1318,0x73,0x0C,Read,NAK
5.067214500000000,1319,0x72,0x3D,Write,ACK
5.067434500000000,1320,0x73,0x0C,Read,ACK
5.067541500000000,1320,0x73,0x00,Read,NAK
5.075187000000000,1321,0x72,0x3D,Write,ACK
5.075409000000000,1322,0x73,0x0C,Read,NAK
5.108001000000000,1323,0x72,0x3D,Write,ACK
5.108221000000000,1324,0x73,0x0C,Read,ACK
5.108328000000000,1324,0x73,0x00,Read,NAK
5.109007500000000,1325,0x72,0x3D,Write,ACK
5.109227500000000,1326,0x73,0x0C,Read,NAK
5.110107500000000,1327,0x72,0x3D,Write,ACK
5.110329500000000,1328,0x73,0x0C,Read,NAK
5.128106500000000,1329,0x72,0x3D,Write,ACK
5.128328000000000,1330,0x73,0x0C,Read,NAK
5.135053500000000,1331,0x72,0x3D,Write,ACK
5.135273500000000,1332,0x73,0x0C,Read,ACK
5.135380500000000,1332,0x73,0x00,Read,NAK
5.152085500000000,1333,0x72,0x3D,Write,ACK
5.152307500000000,1334,0x73,0x0C,Read,NAK
5.153041500000000,1335,0xC0,0xA6,Write,ACK
5.153261000000000,1336,0xC1,0x80,Read,ACK
5.153366000000000,1336,0xC1,0x00,Read,NAK
5.171993000000000,1337,0x72,0x3D,Write,ACK
5.172213000000000,1338,0x73,0x0C,Read,ACK
5.172317500000000,1338,0x73,0x00,Read,NAK
5.173043500000000,1339,0x72,0x3D,Write,ACK
5.173263500000000,1340,0x73,0x0C,Read,NAK
5.179165000000000,1341,0x72,0x3D,Write,ACK
5.179385000000000,1342,0x73,0x0C,Read,NAK
5.203043500000000,1343,0x72,0x3D,Write,ACK
5.203263500000000,1344,0x73,0x0C,Read,ACK
5.203370500000000,1344,0x73,0x00,Read,NAK
5.204046500000000,1345,0x72,0x3D,Write,ACK
5.204268000000000,1346,0x73,0x0C,Read,NAK
5.221379000000000,1347,0x72,0x3D,Write,ACK
5.221757000000000,1348,0x73,0x0C,Read,NAK
5.222403000000000,1349,0x72,0x3D,Write,ACK
5.222623000000000,1350,0x73,0x0C,Read,NAK
5.227316500000000,1351,0x72,0x3D,Write,ACK
5.227538500000000,1352,0x73,0x0C,Read,ACK
5.227645000000000,1352,0x73,0x00,Read,NAK
5.244860000000000,1353,0x72,0x3D,Write,ACK
5.245080000000000,1354,0x73,0x0C,Read,NAK
5.260783000000000,1355,0x72,0x3D,Write,ACK
5.261003000000000,1356,0x73,0x0C,Read,ACK
5.261108000000000,1356,0x73,0x00,Read,NAK
5.262200000000000,1357,0xC0,0xA6,Write,ACK
5.262419500000000,1358,0xC1,0x80,Read,ACK
5.262526500000000,1358,0xC1,0x00,Read,NAK
5.276089500000000,1359,0x72,0x3D,Write,ACK
5.276309500000000,1360,0x73,0x0C,Read,NAK
5.276949500000000,1361,0x72,0x3D,Write,ACK
5.277169500000000,1362,0x73,0x0C,Read,NAK
5.300768000000000,1363,0x72,0x3D,Write,ACK
5.300988000000000,1364,0x73,0x0C,Read,ACK
5.301095000000000,1364,0x73,0x00,Read,NAK
5.303364500000000,1365,0x72,0x3D,Write,ACK
5.303584500000000,1366,0x73,0x0C,Read,NAK
5.336764500000000,1367,0x72,0x3D,Write,ACK
5.336984500000000,1368,0x73,0x0C,Read,ACK
5.337091500000000,1368,0x73,0x00,Read,NAK
5.338047500000000,1369,0x72,0x3D,Write,ACK
5.338269000000000,1370,0x73,0x0C,Read,NAK
5.338911000000000,1371,0x72,0x3D,Write,ACK
5.339133000000000,1372,0x73,0x0C,Read,NAK
5.357398000000000,1373,0x72,0x3D,Write,ACK
5.357749500000000,1374,0x73,0x0C,Read,NAK
5.358487500000000,1375,0xC0,0xA6,Write,ACK
5.358707500000000,1376,0xC1,0x80,Read,ACK
5.358812500000000,1376,0xC1,0x00,Read,NAK
5.360468000000000,1377,0x72,0x3D,Write,ACK
5.360688000000000,1378,0x73,0x0C,Read,ACK
5.360795000000000,1378,0x73,0x00,Read,NAK
5.392071000000000,1379,0x72,0x3D,Write,ACK
