Time [s],Packet ID,Address,Data,Read/Write,ACK/NAK
0.018756500000000,0,0x72,0x3D,Write,ACK
0.018976500000000,1,0x73,0x0C,Read,ACK
0.019083500000000,1,0x73,0x00,Read,NAK
0.019765500000000,2,0x72,0x3D,Write,ACK
0.019985000000000,3,0x73,0x0C,Read,NAK
0.036150000000000,4,0x72,0x3D,Write,ACK
0.036514000000000,5,0x73,0x0C,Read,NAK
0.051529000000000,6,0x72,0x3D,Write,ACK
0.051749000000000,7,0x73,0x0C,Read,ACK
0.051856000000000,7,0x73,0x00,Read,NAK
0.052864000000000,8,0x72,0x3D,Write,ACK
0.053083500000000,9,0x73,0x0C,Read,NAK
0.074858500000000,10,0x72,0x3D,Write,ACK
0.075078500000000,11,0x73,0x0C,Read,NAK
0.095521000000000,12,0x72,0x3D,Write,ACK
0.095741000000000,13,0x73,0x0C,Read,ACK
0.095848000000000,13,0x73,0x00,Read,NAK
0.096949500000000,14,0xC0,0xA6,Write,ACK
0.097169500000000,15,0xC1,0x80,Read,ACK
0.097274500000000,15,0xC1,0x00,Read,NAK
0.099032500000000,16,0x72,0x3D,Write,ACK
0.099252000000000,17,0x73,0x0C,Read,NAK
0.099892000000000,18,0x72,0x3D,Write,ACK
0.100112000000000,19,0x73,0x0C,Read,NAK
0.134750000000000,20,0x72,0x3D,Write,ACK
0.134970000000000,21,0x73,0x0C,Read,ACK
0.135077000000000,21,0x73,0x00,Read,NAK
0.135758500000000,22,0x72,0x3D,Write,ACK
0.135980500000000,23,0x73,0x0C,Read,NAK
0.152145500000000,24,0x72,0x3D,Write,ACK
0.152507500000000,25,0x73,0x0C,Read,NAK
0.153155500000000,26,0x72,0x3D,Write,ACK
0.153377000000000,27,0x73,0x0C,Read,NAK
0.171526000000000,28,0x72,0x3D,Write,ACK
0.171746000000000,29,0x73,0x0C,Read,ACK
0.171853000000000,29,0x73,0x00,Read,NAK
0.190852000000000,30,0x72,0x3D,Write,ACK
0.191071500000000,31,0x73,0x0C,Read,NAK
0.207522500000000,32,0x72,0x3D,Write,ACK
0.207742500000000,33,0x73,0x0C,Read,ACK
0.207849500000000,33,0x73,0x00,Read,NAK
0.208857500000000,34,0x72,0x3D,Write,ACK
0.209079000000000,35,0x73,0x0C,Read,NAK
0.212663000000000,36,0xC0,0xA6,Write,ACK
0.212963000000000,37,0xC1,0x80,Read,ACK
0.213069500000000,37,0xC1,0x00,Read,NAK
0.215621500000000,38,0x72,0x3D,Write,ACK
0.215841500000000,39,0x73,0x0C,Read,NAK
0.233792500000000,40,0x72,0x3D,Write,ACK
0.234012000000000,41,0x73,0x0C,Read,ACK
0.234119000000000,41,0x73,0x00,Read,NAK
0.234789000000000,42,0x72,0x3D,Write,ACK
0.235011000000000,43,0x73,0x0C,Read,NAK
0.253895500000000,44,0x72,0x3D,Write,ACK
0.254115500000000,45,0x73,0x0C,Read,NAK
0.254757500000000,46,0x72,0x3D,Write,ACK
0.254979500000000,47,0x73,0x0C,Read,NAK
0.265148500000000,48,0x72,0x3D,Write,ACK
0.265368500000000,49,0x73,0x0C,Read,ACK
0.265475500000000,49,0x73,0x00,Read,NAK
0.274669000000000,50,0x72,0x3D,Write,ACK
0.274891000000000,51,0x73,0x0C,Read,NAK
0.293789500000000,52,0x72,0x3D,Write,ACK
0.294009500000000,53,0x73,0x0C,Read,ACK
0.294116500000000,53,0x73,0x00,Read,NAK
0.294790500000000,54,0x72,0x3D,Write,ACK
0.295012000000000,55,0x73,0x0C,Read,NAK
0.319595000000000,56,0x72,0x3D,Write,ACK
0.319816500000000,57,0x73,0x0C,Read,NAK
0.320694500000000,58,0x72,0x3D,Write,ACK
0.320914500000000,59,0x73,0x0C,Read,NAK
0.324482000000000,60,0xC0,0xA6,Write,ACK
0.324796000000000,61,0xC1,0x80,Read,ACK
0.324903000000000,61,0xC1,0x00,Read,NAK
0.339520000000000,62,0x72,0x3D,Write,ACK
0.339740000000000,63,0x73,0x0C,Read,ACK
0.339847000000000,63,0x73,0x00,Read,NAK
0.341324500000000,64,0x72,0x3D,Write,ACK
0.341544500000000,65,0x73,0x0C,Read,NAK
0.371511000000000,66,0x72,0x3D,Write,ACK
0.371730500000000,67,0x73,0x0C,Read,ACK
0.371835500000000,67,0x73,0x00,Read,NAK
0.372791500000000,68,0x72,0x3D,Write,ACK
0.373013500000000,69,0x73,0x0C,Read,NAK
0.373651000000000,70,0x72,0x3D,Write,ACK
0.373873000000000,71,0x73,0x0C,Read,NAK
0.392150000000000,72,0x72,0x3D,Write,ACK
0.392496000000000,73,0x73,0x0C,Read,NAK
0.394297500000000,74,0x72,0x3D,Write,ACK
0.394517500000000,75,0x73,0x0C,Read,ACK
0.394622500000000,75,0x73,0x00,Read,NAK
0.426822500000000,76,0x72,0x3D,Write,ACK
0.427042500000000,77,0x73,0x0C,Read,NAK
0.427680500000000,78,0x72,0x3D,Write,ACK
0.427900500000000,79,0x73,0x0C,Read,NAK
0.431476000000000,80,0xC0,0xA6,Write,ACK
0.431780000000000,81,0xC1,0x80,Read,ACK
0.431886500000000,81,0xC1,0x00,Read,NAK
0.434818500000000,82,0x72,0x3D,Write,ACK
0.435038500000000,83,0x73,0x0C,Read,ACK
0.435145500000000,83,0x73,0x00,Read,NAK
0.446824500000000,84,0x72,0x3D,Write,ACK
0.447046500000000,85,0x73,0x0C,Read,NAK
0.470723000000000,86,0x72,0x3D,Write,ACK
0.470943000000000,87,0x73,0x0C,Read,ACK
0.471048000000000,87,0x73,0x00,Read,NAK
0.471723500000000,88,0x72,0x3D,Write,ACK
0.471943500000000,89,0x73,0x0C,Read,NAK
0.490880500000000,90,0x72,0x3D,Write,ACK
0.491100500000000,91,0x73,0x0C,Read,NAK
0.497158000000000,92,0x72,0x3D,Write,ACK
0.497380000000000,93,0x73,0x0C,Read,NAK
0.498397500000000,94,0x72,0x3D,Write,ACK
0.498617500000000,95,0x73,0x0C,Read,ACK
0.498724500000000,95,0x73,0x00,Read,NAK
0.526825000000000,96,0x72,0x3D,Write,ACK
0.527044500000000,97,0x73,0x0C,Read,NAK
0.527780500000000,98,0xC0,0xA6,Write,ACK
0.528000500000000,99,0xC1,0x80,Read,ACK
0.528105500000000,99,0xC1,0x00,Read,NAK
0.542722500000000,100,0x72,0x3D,Write,ACK
0.542942500000000,101,0x73,0x0C,Read,ACK
0.543049500000000,101,0x73,0x00,Read,NAK
0.543771000000000,102,0x72,0x3D,Write,ACK
0.543991000000000,103,0x73,0x0C,Read,NAK
0.549892500000000,104,0x72,0x3D,Write,ACK
0.550114500000000,105,0x73,0x0C,Read,NAK
0.573785000000000,106,0x72,0x3D,Write,ACK
0.574005000000000,107,0x73,0x0C,Read,ACK
0.574112000000000,107,0x73,0x00,Read,NAK
0.574788000000000,108,0x72,0x3D,Write,ACK
0.575007500000000,109,0x73,0x0C,Read,NAK
0.592120500000000,110,0x72,0x3D,Write,ACK
0.592484500000000,111,0x73,0x0C,Read,NAK
0.593134500000000,112,0x72,0x3D,Write,ACK
0.593356500000000,113,0x73,0x0C,Read,NAK
0.598134000000000,114,0x72,0x3D,Write,ACK
0.598354000000000,115,0x73,0x0C,Read,ACK
0.598458500000000,115,0x73,0x00,Read,NAK
0.615597500000000,116,0x72,0x3D,Write,ACK
0.615817500000000,117,0x73,0x0C,Read,NAK
0.631506500000000,118,0x72,0x3D,Write,ACK
0.631726500000000,119,0x73,0x0C,Read,ACK
0.631833500000000,119,0x73,0x00,Read,NAK
0.632933500000000,120,0xC0,0xA6,Write,ACK
0.633153000000000,121,0xC1,0x80,Read,ACK
0.633260000000000,121,0xC1,0x00,Read,NAK
0.646819000000000,122,0x72,0x3D,Write,ACK
0.647041000000000,123,0x73,0x0C,Read,NAK
0.647679000000000,124,0x72,0x3D,Write,ACK
0.647899000000000,125,0x73,0x0C,Read,NAK
0.671499500000000,126,0x72,0x3D,Write,ACK
0.671719500000000,127,0x73,0x0C,Read,ACK
0.671826500000000,127,0x73,0x00,Read,NAK
0.674090000000000,128,0x72,0x3D,Write,ACK
0.674312000000000,129,0x73,0x0C,Read,NAK
0.707498000000000,130,0x72,0x3D,Write,ACK
0.707718000000000,131,0x73,0x0C,Read,ACK
0.707823000000000,131,0x73,0x00,Read,NAK
0.708780500000000,132,0x72,0x3D,Write,ACK
0.709000500000000,133,0x73,0x0C,Read,NAK
0.709644500000000,134,0x72,0x3D,Write,ACK
0.709864500000000,135,0x73,0x0C,Read,NAK
0.728101500000000,136,0x72,0x3D,Write,ACK
0.728551000000000,137,0x73,0x0C,Read,NAK
0.729623000000000,138,0xC0,0xA6,Write,ACK
0.729843000000000,139,0xC1,0x80,Read,ACK
0.729948000000000,139,0xC1,0x00,Read,NAK
0.732615500000000,140,0x72,0x3D,Write,ACK
0.732837500000000,141,0x73,0x0C,Read,ACK
0.732944500000000,141,0x73,0x00,Read,NAK
0.757857000000000,142,0x72,0x3D,Write,ACK
0.758079000000000,143,0x73,0x0C,Read,NAK
0.758720500000000,144,0x72,0x3D,Write,ACK
0.758940500000000,145,0x73,0x0C,Read,NAK
0.769000000000000,146,0x72,0x3D,Write,ACK
0.769220000000000,147,0x73,0x0C,Read,ACK
0.769324500000000,147,0x73,0x00,Read,NAK
0.787579500000000,148,0x72,0x3D,Write,ACK
0.787799500000000,149,0x73,0x0C,Read,NAK
0.803488500000000,150,0x72,0x3D,Write,ACK
0.803708500000000,151,0x73,0x0C,Read,ACK
0.803813500000000,151,0x73,0x00,Read,NAK
0.818808500000000,152,0x72,0x3D,Write,ACK
0.819030500000000,153,0x73,0x0C,Read,NAK
0.819668000000000,154,0x72,0x3D,Write,ACK
0.819888000000000,155,0x73,0x0C,Read,NAK
0.843485000000000,156,0x72,0x3D,Write,ACK
0.843704500000000,157,0x73,0x0C,Read,ACK
0.843809500000000,157,0x73,0x00,Read,NAK
0.844911500000000,158,0xC0,0xA6,Write,ACK
0.845131500000000,159,0xC1,0x80,Read,ACK
0.845238000000000,159,0xC1,0x00,Read,NAK
0.846994000000000,160,0x72,0x3D,Write,ACK
0.847214000000000,161,0x73,0x0C,Read,NAK
0.870544500000000,162,0x72,0x3D,Write,ACK
0.870764500000000,163,0x73,0x0C,Read,ACK
0.870869500000000,163,0x73,0x00,Read,NAK
0.871543000000000,164,0x72,0x3D,Write,ACK
0.871763000000000,165,0x73,0x0C,Read,NAK
0.872631000000000,166,0x72,0x3D,Write,ACK
0.872851000000000,167,0x73,0x0C,Read,NAK
0.903485000000000,168,0x72,0x3D,Write,ACK
0.903705000000000,169,0x73,0x0C,Read,ACK
0.903810000000000,169,0x73,0x00,Read,NAK
0.904765500000000,170,0x72,0x3D,Write,ACK
0.904987500000000,171,0x73,0x0C,Read,NAK
0.934698000000000,172,0x72,0x3D,Write,ACK
0.934918000000000,173,0x73,0x0C,Read,ACK
0.935022500000000,173,0x73,0x00,Read,NAK
0.935696500000000,174,0x72,0x3D,Write,ACK
0.935918500000000,175,0x73,0x0C,Read,NAK
0.936792500000000,176,0x72,0x3D,Write,ACK
0.937014000000000,177,0x73,0x0C,Read,NAK
0.942784000000000,178,0xC0,0xA6,Write,ACK
0.943003500000000,179,0xC1,0x80,Read,ACK
0.943108500000000,179,0xC1,0x00,Read,NAK
0.956072000000000,180,0x72,0x3D,Write,ACK
0.956467500000000,181,0x73,0x0C,Read,NAK
0.971482500000000,182,0x72,0x3D,Write,ACK
0.971702500000000,183,0x73,0x0C,Read,ACK
0.971809500000000,183,0x73,0x00,Read,NAK
0.994808000000000,184,0x72,0x3D,Write,ACK
0.995028000000000,185,0x73,0x0C,Read,NAK
0.995668000000000,186,0x72,0x3D,Write,ACK
0.995890000000000,187,0x73,0x0C,Read,NAK
1.019488500000000,188,0x72,0x3D,Write,ACK
1.019708500000000,189,0x73,0x0C,Read,ACK
1.019815500000000,189,0x73,0x00,Read,NAK
1.022089000000000,190,0x72,0x3D,Write,ACK
1.022311000000000,191,0x73,0x0C,Read,NAK
1.055481000000000,192,0x72,0x3D,Write,ACK
1.055701000000000,193,0x73,0x0C,Read,ACK
1.055808000000000,193,0x73,0x00,Read,NAK
1.056767500000000,194,0x72,0x3D,Write,ACK
1.056989500000000,195,0x73,0x0C,Read,NAK
1.057633500000000,196,0x72,0x3D,Write,ACK
1.057853500000000,197,0x73,0x0C,Read,NAK
1.061433000000000,198,0xC0,0xA6,Write,ACK
1.061737000000000,199,0xC1,0x80,Read,ACK
1.061844000000000,199,0xC1,0x00,Read,NAK
1.076103000000000,200,0x72,0x3D,Write,ACK
1.076459000000000,201,0x73,0x0C,Read,NAK
1.078256500000000,202,0x72,0x3D,Write,ACK
1.078476500000000,203,0x73,0x0C,Read,ACK
1.078581500000000,203,0x73,0x00,Read,NAK
1.110779500000000,204,0x72,0x3D,Write,ACK
1.110999500000000,205,0x73,0x0C,Read,NAK
1.111641500000000,206,0x72,0x3D,Write,ACK
1.111861000000000,207,0x73,0x0C,Read,NAK
1.117799000000000,208,0x72,0x3D,Write,ACK
1.118018500000000,209,0x73,0x0C,Read,ACK
1.118125500000000,209,0x73,0x00,Read,NAK
1.130793000000000,210,0x72,0x3D,Write,ACK
1.131012500000000,211,0x73,0x0C,Read,NAK
1.154701500000000,212,0x72,0x3D,Write,ACK
1.154921000000000,213,0x73,0x0C,Read,ACK
1.155028000000000,213,0x73,0x00,Read,NAK
1.155708000000000,214,0x72,0x3D,Write,ACK
1.155930000000000,215,0x73,0x0C,Read,NAK
1.156883500000000,216,0xC0,0xA6,Write,ACK
1.157103500000000,217,0xC1,0x80,Read,ACK
1.157208500000000,217,0xC1,0x00,Read,NAK
1.174831500000000,218,0x72,0x3D,Write,ACK
1.175051500000000,219,0x73,0x0C,Read,NAK
1.181119000000000,220,0x72,0x3D,Write,ACK
1.181341000000000,221,0x73,0x0C,Read,NAK
1.182358500000000,222,0x72,0x3D,Write,ACK
1.182578500000000,223,0x73,0x0C,Read,ACK
1.182685500000000,223,0x73,0x00,Read,NAK
1.214783500000000,224,0x72,0x3D,Write,ACK
1.215005500000000,225,0x73,0x0C,Read,NAK
1.221745000000000,226,0x72,0x3D,Write,ACK
1.221965000000000,227,0x73,0x0C,Read,ACK
1.222072000000000,227,0x73,0x00,Read,NAK
1.222799500000000,228,0x72,0x3D,Write,ACK
1.223021500000000,229,0x73,0x0C,Read,NAK
1.234481000000000,230,0x72,0x3D,Write,ACK
1.234702500000000,231,0x73,0x0C,Read,NAK
1.255465500000000,232,0x72,0x3D,Write,ACK
1.255685500000000,233,0x73,0x0C,Read,ACK
1.255792500000000,233,0x73,0x00,Read,NAK
1.256750000000000,234,0x72,0x3D,Write,ACK
1.256972000000000,235,0x73,0x0C,Read,NAK
1.257708000000000,236,0xC0,0xA6,Write,ACK
1.257928000000000,237,0xC1,0x80,Read,ACK
1.258034500000000,237,0xC1,0x00,Read,NAK
1.278841500000000,238,0x72,0x3D,Write,ACK
1.279063500000000,239,0x73,0x0C,Read,NAK
1.303460000000000,240,0x72,0x3D,Write,ACK
1.303680000000000,241,0x73,0x0C,Read,ACK
1.303784500000000,241,0x73,0x00,Read,NAK
1.304746500000000,242,0x72,0x3D,Write,ACK
1.304968500000000,243,0x73,0x0C,Read,NAK
1.339456500000000,244,0x72,0x3D,Write,ACK
1.339676500000000,245,0x73,0x0C,Read,ACK
1.339781500000000,245,0x73,0x00,Read,NAK
1.340743000000000,246,0x72,0x3D,Write,ACK
1.340963000000000,247,0x73,0x0C,Read,NAK
1.341605000000000,248,0x72,0x3D,Write,ACK
1.341827000000000,249,0x73,0x0C,Read,NAK
1.358934000000000,250,0xC0,0xA6,Write,ACK
1.359153500000000,251,0xC1,0x80,Read,ACK
1.359258500000000,251,0xC1,0x00,Read,NAK
1.361186500000000,252,0x72,0x3D,Write,ACK
1.361406000000000,253,0x73,0x0C,Read,NAK
1.364726000000000,254,0x72,0x3D,Write,ACK
1.364946000000000,255,0x73,0x0C,Read,ACK
1.365053000000000,255,0x73,0x00,Read,NAK
1.394769000000000,256,0x72,0x3D,Write,ACK
1.394991000000000,257,0x73,0x0C,Read,NAK
1.395629000000000,258,0x72,0x3D,Write,ACK
1.395850500000000,259,0x73,0x0C,Read,NAK
1.401772500000000,260,0x72,0x3D,Write,ACK
1.401992000000000,261,0x73,0x0C,Read,ACK
1.402099000000000,261,0x73,0x00,Read,NAK
1.413980500000000,262,0x72,0x3D,Write,ACK
1.414202000000000,263,0x73,0x0C,Read,NAK
1.438677000000000,264,0x72,0x3D,Write,ACK
1.438896500000000,265,0x73,0x0C,Read,ACK
1.439003500000000,265,0x73,0x00,Read,NAK
1.439683500000000,266,0x72,0x3D,Write,ACK
1.439903500000000,267,0x73,0x0C,Read,NAK
1.442083000000000,268,0x72,0x3D,Write,ACK
1.442305000000000,269,0x73,0x0C,Read,NAK
1.462764000000000,270,0x72,0x3D,Write,ACK
1.462983500000000,271,0x73,0x0C,Read,NAK
1.463713500000000,272,0xC0,0xA6,Write,ACK
1.463933500000000,273,0xC1,0x80,Read,ACK
1.464038500000000,273,0xC1,0x00,Read,NAK
1.486679000000000,274,0x72,0x3D,Write,ACK
1.486899000000000,275,0x73,0x0C,Read,ACK
1.487006000000000,275,0x73,0x00,Read,NAK
1.489173500000000,276,0x72,0x3D,Write,ACK
1.489395500000000,277,0x73,0x0C,Read,NAK
1.503592500000000,278,0x72,0x3D,Write,ACK
1.503814500000000,279,0x73,0x0C,Read,NAK
1.527459000000000,280,0x72,0x3D,Write,ACK
1.527679000000000,281,0x73,0x0C,Read,ACK
1.527784000000000,281,0x73,0x00,Read,NAK
1.528744000000000,282,0x72,0x3D,Write,ACK
1.528963500000000,283,0x73,0x0C,Read,NAK
1.559452000000000,284,0x72,0x3D,Write,ACK
1.559672000000000,285,0x73,0x0C,Read,ACK
1.559778500000000,285,0x73,0x00,Read,NAK
1.560732500000000,286,0x72,0x3D,Write,ACK
1.560952500000000,287,0x73,0x0C,Read,NAK
1.561592500000000,288,0x72,0x3D,Write,ACK
1.561814000000000,289,0x73,0x0C,Read,NAK
1.578923000000000,290,0xC0,0xA6,Write,ACK
1.579143000000000,291,0xC1,0x80,Read,ACK
1.579250000000000,291,0xC1,0x00,Read,NAK
1.581172000000000,292,0x72,0x3D,Write,ACK
1.581391500000000,293,0x73,0x0C,Read,NAK
1.584713500000000,294,0x72,0x3D,Write,ACK
1.584933500000000,295,0x73,0x0C,Read,ACK
1.585038000000000,295,0x73,0x00,Read,NAK
1.614762500000000,296,0x72,0x3D,Write,ACK
1.614984500000000,297,0x73,0x0C,Read,NAK
1.615626000000000,298,0x72,0x3D,Write,ACK
1.615848000000000,299,0x73,0x0C,Read,NAK
1.621779500000000,300,0x72,0x3D,Write,ACK
1.622001500000000,301,0x73,0x0C,Read,ACK
1.622106500000000,301,0x73,0x00,Read,NAK
1.633965500000000,302,0x72,0x3D,Write,ACK
1.634185500000000,303,0x73,0x0C,Read,NAK
1.658672000000000,304,0x72,0x3D,Write,ACK
1.658892000000000,305,0x73,0x0C,Read,ACK
1.658999000000000,305,0x73,0x00,Read,NAK
1.659673000000000,306,0x72,0x3D,Write,ACK
1.659892500000000,307,0x73,0x0C,Read,NAK
1.662074500000000,308,0x72,0x3D,Write,ACK
1.662296500000000,309,0x73,0x0C,Read,NAK
1.682757000000000,310,0x72,0x3D,Write,ACK
1.682979000000000,311,0x73,0x0C,Read,NAK
1.683713000000000,312,0xC0,0xA6,Write,ACK
1.683933000000000,313,0xC1,0x80,Read,ACK
1.684039500000000,313,0xC1,0x00,Read,NAK
1.706654500000000,314,0x72,0x3D,Write,ACK
1.706874500000000,315,0x73,0x0C,Read,ACK
1.706981000000000,315,0x73,0x00,Read,NAK
1.709155000000000,316,0x72,0x3D,Write,ACK
1.709377000000000,317,0x73,0x0C,Read,NAK
1.723574000000000,318,0x72,0x3D,Write,ACK
1.723796000000000,319,0x73,0x0C,Read,NAK
1.747444500000000,320,0x72,0x3D,Write,ACK
1.747664500000000,321,0x73,0x0C,Read,ACK
1.747771500000000,321,0x73,0x00,Read,NAK
1.748729000000000,322,0x72,0x3D,Write,ACK
1.748951000000000,323,0x73,0x0C,Read,NAK
1.779439500000000,324,0x72,0x3D,Write,ACK
1.779659000000000,325,0x73,0x0C,Read,ACK
1.779766000000000,325,0x73,0x00,Read,NAK
1.780718000000000,326,0x72,0x3D,Write,ACK
1.780940000000000,327,0x73,0x0C,Read,NAK
1.781579500000000,328,0x72,0x3D,Write,ACK
1.781801500000000,329,0x73,0x0C,Read,NAK
1.798916500000000,330,0xC0,0xA6,Write,ACK
1.799136500000000,331,0xC1,0x80,Read,ACK
1.799243500000000,331,0xC1,0x00,Read,NAK
1.801161000000000,332,0x72,0x3D,Write,ACK
1.801381000000000,333,0x73,0x0C,Read,NAK
1.803175000000000,334,0x72,0x3D,Write,ACK
1.803394500000000,335,0x73,0x0C,Read,ACK
1.803501500000000,335,0x73,0x00,Read,NAK
1.834748000000000,336,0x72,0x3D,Write,ACK
1.834969500000000,337,0x73,0x0C,Read,NAK
1.835611500000000,338,0x72,0x3D,Write,ACK
1.835833500000000,339,0x73,0x0C,Read,NAK
1.841761000000000,340,0x72,0x3D,Write,ACK
1.841981000000000,341,0x73,0x0C,Read,ACK
1.842088000000000,341,0x73,0x00,Read,NAK
1.853953000000000,342,0x72,0x3D,Write,ACK
1.854173000000000,343,0x73,0x0C,Read,NAK
1.878665500000000,344,0x72,0x3D,Write,ACK
1.878885500000000,345,0x73,0x0C,Read,ACK
1.878990500000000,345,0x73,0x00,Read,NAK
1.879664000000000,346,0x72,0x3D,Write,ACK
1.879886000000000,347,0x73,0x0C,Read,NAK
1.882068000000000,348,0x72,0x3D,Write,ACK
1.882288000000000,349,0x73,0x0C,Read,NAK
1.902752500000000,350,0x72,0x3D,Write,ACK
1.902974500000000,351,0x73,0x0C,Read,NAK
1.903708500000000,352,0xC0,0xA6,Write,ACK
1.903928000000000,353,0xC1,0x80,Read,ACK
1.904033000000000,353,0xC1,0x00,Read,NAK
1.926646000000000,354,0x72,0x3D,Write,ACK
1.926865500000000,355,0x73,0x0C,Read,ACK
1.926970500000000,355,0x73,0x00,Read,NAK
1.929144500000000,356,0x72,0x3D,Write,ACK
1.929366000000000,357,0x73,0x0C,Read,NAK
1.943567500000000,358,0x72,0x3D,Write,ACK
1.943789500000000,359,0x73,0x0C,Read,NAK
1.967438000000000,360,0x72,0x3D,Write,ACK
1.967658000000000,361,0x73,0x0C,Read,ACK
1.967764500000000,361,0x73,0x00,Read,NAK
1.968720500000000,362,0x72,0x3D,Write,ACK
1.968940500000000,363,0x73,0x0C,Read,NAK
1.999424500000000,364,0x72,0x3D,Write,ACK
1.999644500000000,365,0x73,0x0C,Read,ACK
1.999749500000000,365,0x73,0x00,Read,NAK
2.000705500000000,366,0x72,0x3D,Write,ACK
2.000925000000000,367,0x73,0x0C,Read,NAK
2.001565000000000,368,0x72,0x3D,Write,ACK
2.001785000000000,369,0x73,0x0C,Read,NAK
2.018906000000000,370,0xC0,0xA6,Write,ACK
2.019126000000000,371,0xC1,0x80,Read,ACK
2.019230500000000,371,0xC1,0x00,Read,NAK
2.021150500000000,372,0x72,0x3D,Write,ACK
2.021370500000000,373,0x73,0x0C,Read,NAK
2.023164000000000,374,0x72,0x3D,Write,ACK
2.023384000000000,375,0x73,0x0C,Read,ACK
2.023491000000000,375,0x73,0x00,Read,NAK
2.054739000000000,376,0x72,0x3D,Write,ACK
2.054961000000000,377,0x73,0x0C,Read,NAK
2.055605000000000,378,0x72,0x3D,Write,ACK
2.055825000000000,379,0x73,0x0C,Read,NAK
2.061748500000000,380,0x72,0x3D,Write,ACK
2.061970500000000,381,0x73,0x0C,Read,ACK
2.062075000000000,381,0x73,0x00,Read,NAK
2.073942500000000,382,0x72,0x3D,Write,ACK
2.074162500000000,383,0x73,0x0C,Read,NAK
2.098643000000000,384,0x72,0x3D,Write,ACK
2.098863000000000,385,0x73,0x0C,Read,ACK
2.098967500000000,385,0x73,0x00,Read,NAK
2.099643500000000,386,0x72,0x3D,Write,ACK
2.099863500000000,387,0x73,0x0C,Read,NAK
2.102041000000000,388,0x72,0x3D,Write,ACK
2.102261000000000,389,0x73,0x0C,Read,NAK
2.122734000000000,390,0x72,0x3D,Write,ACK
2.122956000000000,391,0x73,0x0C,Read,NAK
2.123687500000000,392,0xC0,0xA6,Write,ACK
2.123907500000000,393,0xC1,0x80,Read,ACK
2.124012500000000,393,0xC1,0x00,Read,NAK
2.146631000000000,394,0x72,0x3D,Write,ACK
2.146851000000000,395,0x73,0x0C,Read,ACK
2.146956000000000,395,0x73,0x00,Read,NAK
2.149129500000000,396,0x72,0x3D,Write,ACK
2.149349500000000,397,0x73,0x0C,Read,NAK
2.163552500000000,398,0x72,0x3D,Write,ACK
2.163772500000000,399,0x73,0x0C,Read,NAK
2.187427000000000,400,0x72,0x3D,Write,ACK
2.187647000000000,401,0x73,0x0C,Read,ACK
2.187754000000000,401,0x73,0x00,Read,NAK
