Time [s],Packet ID,Address,Data,Read/Write,ACK/NAK
19.888829000000001,0,0x72,0x00,Write,ACK
19.889050500000000,1,0x73,0x01,Read,NAK
19.889604500000001,2,0x72,0xBC,Write,ACK
19.889709499999999,2,0x72,0x80,Write,ACK
19.890253500000000,3,0x72,0x82,Write,ACK
19.890357999999999,3,0x72,0xA5,Write,ACK
19.891159999999999,4,0x72,0x7C,Write,ACK
19.891265000000001,4,0x72,0x01,Write,ACK
19.891812999999999,5,0x72,0xC7,Write,ACK
19.891917500000002,5,0x72,0x00,Write,ACK
19.892465500000000,6,0x72,0x2A,Write,ACK
19.892570500000001,6,0x72,0x00,Write,ACK
19.893112500000001,7,0x72,0x1A,Write,ACK
19.893215000000001,7,0x72,0x10,Write,ACK
19.893995000000000,8,0x72,0x40,Write,ACK
19.894214999999999,9,0x73,0x00,Read,NAK
19.894967000000001,10,0x72,0x40,Write,ACK
19.895071500000000,10,0x72,0x01,Write,ACK
19.895627500000000,11,0x72,0x40,Write,ACK
19.895732500000001,11,0x72,0x00,Write,ACK
19.919311000000000,12,0x72,0x3C,Write,ACK
19.919415999999998,12,0x72,0x00,Write,ACK
19.919960000000000,13,0x72,0x3F,Write,ACK
19.920064499999999,13,0x72,0x00,Write,ACK
19.920610499999999,14,0x72,0x1E,Write,ACK
19.920715500000000,14,0x72,0x02,Write,ACK
19.921267499999999,15,0x72,0xBC,Write,ACK
19.921372000000002,15,0x72,0x01,Write,ACK
19.921914000000001,16,0x72,0xBD,Write,ACK
19.922018999999999,16,0x72,0x28,Write,ACK
19.922563000000000,17,0x72,0xBE,Write,ACK
19.922665500000001,17,0x72,0x22,Write,ACK
19.923365499999999,18,0x72,0xBF,Write,ACK
19.923470500000001,18,0x72,0x00,Write,ACK
19.924016500000000,19,0x72,0xBF,Write,ACK
19.924121499999998,19,0x72,0x01,Write,ACK
19.924669000000002,20,0x72,0xBF,Write,ACK
19.924773999999999,20,0x72,0x02,Write,ACK
19.925319999999999,21,0x72,0xBF,Write,ACK
19.925425000000001,21,0x72,0x03,Write,ACK
19.925970499999998,22,0x72,0xBF,Write,ACK
19.926075500000000,22,0x72,0x04,Write,ACK
19.926623500000002,23,0x72,0xBF,Write,ACK
19.926886499999998,23,0x72,0x05,Write,ACK
19.927441999999999,24,0x72,0xBF,Write,ACK
19.927547000000001,24,0x72,0x06,Write,ACK
19.928093000000001,25,0x72,0xBF,Write,ACK
19.928197999999998,25,0x72,0x07,Write,ACK
19.928993500000001,26,0x72,0x2A,Write,ACK
19.929213499999999,27,0x73,0x00,Read,NAK
19.929775500000002,28,0x72,0x1A,Write,ACK
19.929995500000000,29,0x73,0x10,Read,NAK
19.930551000000001,30,0x72,0x1A,Write,ACK
19.930654000000001,30,0x72,0x50,Write,ACK
19.931374000000002,31,0x72,0xBD,Write,ACK
19.931479000000000,31,0x72,0x4B,Write,ACK
19.932020500000000,32,0x72,0xBE,Write,ACK
19.932125500000001,32,0x72,0x00,Write,ACK
19.932669499999999,33,0x72,0xBD,Write,ACK
19.932772499999999,33,0x72,0x4C,Write,ACK
19.933316000000001,34,0x72,0xBE,Write,ACK
19.933419000000001,34,0x72,0x00,Write,ACK
19.933962999999999,35,0x72,0xBD,Write,ACK
19.934068000000000,35,0x72,0x4D,Write,ACK
19.934612000000001,36,0x72,0xBE,Write,ACK
19.934886500000001,36,0x72,0x00,Write,ACK
19.965409000000001,37,0xC0,0x8E,Write,ACK
19.965513500000000,37,0xC0,0x00,Write,ACK
19.966061499999999,38,0xC0,0x88,Write,ACK
19.966166500000000,38,0xC0,0x0F,Write,ACK
19.966910500000001,39,0xC0,0x89,Write,ACK
19.967015000000000,39,0xC0,0x0F,Write,ACK
19.967571000000000,40,0xC0,0xA2,Write,ACK
19.967676000000001,40,0xC0,0x00,Write,ACK
19.968223999999999,41,0xC0,0xA3,Write,ACK
19.968328499999998,41,0xC0,0x00,Write,ACK
19.968876500000000,42,0xC0,0x9F,Write,ACK
19.968979500000000,42,0xC0,0x00,Write,ACK
19.969531499999999,43,0xC0,0xAC,Write,ACK
19.969636500000000,43,0xC0,0x02,Write,ACK
19.970186000000002,44,0xC0,0xA4,Write,ACK
19.970289000000001,44,0xC0,0x06,Write,ACK
19.971094999999998,45,0xC0,0xA5,Write,ACK
19.971200000000000,45,0xC0,0x02,Write,ACK
19.971769500000001,46,0xC0,0xA2,Write,ACK
19.971874499999998,46,0xC0,0x00,Write,ACK
19.971979500000000,46,0xC0,0x80,Write,ACK
19.972529500000000,47,0xC0,0x88,Write,ACK
19.972633999999999,47,0xC0,0x0F,Write,ACK
19.984997499999999,48,0x72,0x3D,Write,ACK
19.985217500000001,49,0x73,0x00,Read,ACK
19.985322000000000,49,0x73,0x00,Read,NAK
19.986001999999999,50,0x72,0x3D,Write,ACK
19.986224000000000,51,0x73,0x00,Read,NAK
19.987254000000000,52,0x72,0x3D,Write,ACK
19.987475499999999,53,0x73,0x00,Read,NAK
20.119178000000002,54,0x72,0x2A,Write,ACK
20.119398000000000,55,0x73,0x00,Read,NAK
20.129958999999999,56,0xC0,0xA6,Write,ACK
20.130239000000000,57,0xC1,0x80,Read,ACK
20.130344000000001,57,0xC1,0x00,Read,NAK
20.131385999999999,58,0x72,0x1A,Write,ACK
20.131607500000001,59,0x73,0x50,Read,NAK
20.132163500000001,60,0x72,0x1A,Write,ACK
20.132268499999999,60,0x72,0x58,Write,ACK
20.186952999999999,61,0x72,0x3D,Write,ACK
20.187173000000001,62,0x73,0x00,Read,ACK
20.187277999999999,62,0x73,0x00,Read,NAK
20.187965999999999,63,0x72,0x3D,Write,ACK
20.188188000000000,64,0x73,0x00,Read,NAK
20.188831499999999,65,0x72,0x3D,Write,ACK
20.189051500000001,66,0x73,0x00,Read,NAK
20.192648999999999,67,0xC0,0xA6,Write,ACK
20.192952999999999,68,0xC1,0x80,Read,ACK
20.193058000000001,68,0xC1,0x00,Read,NAK
20.194137999999999,69,0x72,0x3D,Write,ACK
20.194359500000001,70,0x73,0x00,Read,NAK
20.206009000000002,71,0x72,0x3D,Write,ACK
20.206229000000000,72,0x73,0x00,Read,NAK
20.215488000000001,73,0x72,0x3D,Write,ACK
20.215707999999999,74,0x73,0x00,Read,ACK
20.215813000000001,74,0x73,0x00,Read,NAK
20.231576000000000,75,0x72,0x3D,Write,ACK
20.231798000000001,76,0x73,0x00,Read,NAK
20.233931500000001,77,0xC0,0xA6,Write,ACK
20.234151499999999,78,0xC1,0x80,Read,ACK
20.234256500000001,78,0xC1,0x00,Read,NAK
20.235413999999999,79,0x72,0x3D,Write,ACK
20.235634000000001,80,0x73,0x00,Read,ACK
20.235738999999999,80,0x73,0x00,Read,NAK
20.247669999999999,81,0x72,0x3D,Write,ACK
20.247892000000000,82,0x73,0x00,Read,NAK
20.260417499999999,83,0x72,0x3D,Write,ACK
20.260636999999999,84,0x73,0x00,Read,NAK
20.271496500000001,85,0x72,0x3D,Write,ACK
20.271716500000000,86,0x73,0x00,Read,ACK
20.271821500000001,86,0x73,0x00,Read,NAK
20.284378499999999,87,0x72,0x3D,Write,ACK
20.284598500000001,88,0x73,0x00,Read,NAK
20.299669500000000,89,0x72,0x3D,Write,ACK
20.299889499999999,90,0x73,0x00,Read,NAK
20.315490499999999,91,0x72,0x3D,Write,ACK
20.315709999999999,92,0x73,0x00,Read,ACK
20.315815000000001,92,0x73,0x00,Read,NAK
20.316499000000000,93,0x72,0x3D,Write,ACK
20.316718999999999,94,0x73,0x00,Read,NAK
20.340377499999999,95,0x72,0x3D,Write,ACK
20.340599000000001,96,0x73,0x00,Read,NAK
20.341377000000001,97,0xC0,0xA6,Write,ACK
20.341597000000000,98,0xC1,0x80,Read,ACK
20.341702000000002,98,0xC1,0x00,Read,NAK
20.351541000000001,99,0x72,0x3D,Write,ACK
20.351761000000000,100,0x73,0x00,Read,ACK
20.351866000000001,100,0x73,0x00,Read,NAK
20.352595999999998,101,0x72,0x3D,Write,ACK
20.352815499999998,102,0x73,0x00,Read,NAK
20.371582499999999,103,0x72,0x3D,Write,ACK
20.371802500000001,104,0x73,0x00,Read,NAK
20.388379499999999,105,0x72,0x3D,Write,ACK
20.388599500000002,106,0x73,0x00,Read,ACK
20.388704000000001,106,0x73,0x00,Read,NAK
20.390931999999999,107,0x72,0x3D,Write,ACK
20.391152000000002,108,0x73,0x00,Read,NAK
20.407609000000001,109,0x72,0x3D,Write,ACK
20.407830499999999,110,0x73,0x00,Read,NAK
20.419504000000000,111,0x72,0x3D,Write,ACK
20.419723999999999,112,0x73,0x00,Read,ACK
20.419828500000001,112,0x73,0x00,Read,NAK
20.420510499999999,113,0x72,0x3D,Write,ACK
20.420732500000000,114,0x73,0x00,Read,NAK
20.444420999999998,115,0x72,0x3D,Write,ACK
20.444642999999999,116,0x73,0x00,Read,NAK
20.445420500000001,117,0xC0,0xA6,Write,ACK
20.445640500000000,118,0xC1,0x80,Read,ACK
20.445745500000001,118,0xC1,0x00,Read,NAK
20.451495000000001,119,0x72,0x3D,Write,ACK
20.451715000000000,120,0x73,0x00,Read,ACK
20.451820000000001,120,0x73,0x00,Read,NAK
20.464369000000001,121,0x72,0x3D,Write,ACK
20.464589000000000,122,0x73,0x00,Read,NAK
20.465229000000001,123,0x72,0x3D,Write,ACK
20.465448500000001,124,0x73,0x00,Read,NAK
20.479475999999998,125,0x72,0x3D,Write,ACK
20.479697500000000,126,0x73,0x00,Read,ACK
20.479802500000002,126,0x73,0x00,Read,NAK
20.488371999999998,127,0x72,0x3D,Write,ACK
20.488593999999999,128,0x73,0x00,Read,NAK
20.508276500000001,129,0x72,0x3D,Write,ACK
20.508496500000000,130,0x73,0x00,Read,ACK
20.508601500000001,130,0x73,0x00,Read,NAK
20.510636999999999,131,0x72,0x3D,Write,ACK
20.510974999999998,132,0x73,0x00,Read,NAK
20.519610499999999,133,0x72,0x3D,Write,ACK
20.519830500000001,134,0x73,0x00,Read,NAK
20.540385000000001,135,0x72,0x3D,Write,ACK
20.540607000000001,136,0x73,0x00,Read,NAK
20.547530500000001,137,0x72,0x3D,Write,ACK
20.547750499999999,138,0x73,0x00,Read,ACK
20.547854999999998,138,0x73,0x00,Read,NAK
20.548721000000000,139,0xC0,0xA6,Write,ACK
20.548940999999999,140,0xC1,0x80,Read,ACK
20.549046000000001,140,0xC1,0x00,Read,NAK
20.564354999999999,141,0x72,0x3D,Write,ACK
20.564575000000001,142,0x73,0x00,Read,NAK
20.571596499999998,143,0x72,0x3D,Write,ACK
20.571818000000000,144,0x73,0x00,Read,NAK
20.576512000000001,145,0x72,0x3D,Write,ACK
20.576731500000001,146,0x73,0x00,Read,ACK
20.576836499999999,146,0x73,0x00,Read,NAK
20.588362000000000,147,0x72,0x3D,Write,ACK
20.588583499999999,148,0x73,0x00,Read,NAK
20.603460999999999,149,0x72,0x3D,Write,ACK
20.603680499999999,150,0x73,0x00,Read,ACK
20.603785500000001,150,0x73,0x00,Read,NAK
20.612351000000000,151,0x72,0x3D,Write,ACK
20.612570999999999,152,0x73,0x00,Read,NAK
20.628284000000001,153,0x72,0x3D,Write,ACK
20.628504000000000,154,0x73,0x00,Read,ACK
20.628608499999999,154,0x73,0x00,Read,NAK
20.629324499999999,155,0x72,0x3D,Write,ACK
20.629546500000000,156,0x73,0x00,Read,NAK
20.640439499999999,157,0x72,0x3D,Write,ACK
20.640661500000000,158,0x73,0x00,Read,NAK
20.655744500000001,159,0xC0,0xA6,Write,ACK
20.655964500000000,160,0xC1,0x80,Read,ACK
20.656069500000001,160,0xC1,0x00,Read,NAK
20.671456500000001,161,0x72,0x3D,Write,ACK
20.671676500000000,162,0x73,0x00,Read,ACK
20.671780999999999,162,0x73,0x00,Read,NAK
20.672457000000001,163,0x72,0x3D,Write,ACK
20.672677000000000,164,0x73,0x00,Read,NAK
20.683588000000000,165,0x72,0x3D,Write,ACK
20.683807999999999,166,0x73,0x00,Read,NAK
20.696333500000001,167,0x72,0x3D,Write,ACK
20.696553000000002,168,0x73,0x00,Read,ACK
20.696657999999999,168,0x73,0x00,Read,NAK
20.697334000000001,169,0x72,0x3D,Write,ACK
20.697555999999999,170,0x73,0x00,Read,NAK
20.720346500000002,171,0x72,0x3D,Write,ACK
20.720566500000000,172,0x73,0x00,Read,NAK
20.727452000000000,173,0x72,0x3D,Write,ACK
20.727671500000000,174,0x73,0x00,Read,ACK
20.727776500000001,174,0x73,0x00,Read,NAK
20.740389499999999,175,0x72,0x3D,Write,ACK
20.740609500000001,176,0x73,0x00,Read,NAK
20.745399500000001,177,0x72,0x3D,Write,ACK
20.745619000000001,178,0x73,0x00,Read,NAK
20.746915000000001,179,0x72,0x3D,Write,ACK
20.747197000000000,180,0x73,0x00,Read,ACK
20.747302000000001,180,0x73,0x00,Read,NAK
20.755735000000001,181,0xC0,0xA6,Write,ACK
20.755955000000000,182,0xC1,0x80,Read,ACK
20.756060000000002,182,0xC1,0x00,Read,NAK
20.772355000000001,183,0x72,0x3D,Write,ACK
20.772576999999998,184,0x73,0x00,Read,NAK
20.783466000000001,185,0x72,0x3D,Write,ACK
20.783685999999999,186,0x73,0x00,Read,ACK
20.783791000000001,186,0x73,0x00,Read,NAK
20.793240000000001,187,0x72,0x3D,Write,ACK
20.793460000000000,188,0x73,0x00,Read,NAK
20.794104000000001,189,0x72,0x3D,Write,ACK
20.794324000000000,190,0x73,0x00,Read,NAK
20.815468500000001,191,0x72,0x3D,Write,ACK
20.815688500000000,192,0x73,0x00,Read,ACK
20.815793500000002,192,0x73,0x00,Read,NAK
20.823543000000001,193,0x72,0x3D,Write,ACK
20.823764499999999,194,0x73,0x00,Read,NAK
20.848300999999999,195,0x72,0x3D,Write,ACK
20.848521000000002,196,0x73,0x00,Read,ACK
20.848625999999999,196,0x73,0x00,Read,NAK
20.849302000000002,197,0x72,0x3D,Write,ACK
20.849521500000002,198,0x73,0x00,Read,NAK
20.850163500000001,199,0x72,0x3D,Write,ACK
20.850383500000000,200,0x73,0x00,Read,NAK
20.856269000000001,201,0xC0,0xA6,Write,ACK
20.856489000000000,202,0xC1,0x80,Read,ACK
20.856594000000001,202,0xC1,0x00,Read,NAK
20.871438999999999,203,0x72,0x3D,Write,ACK
20.871659000000001,204,0x73,0x00,Read,ACK
20.871763500000000,204,0x73,0x00,Read,NAK
20.872437500000000,205,0x72,0x3D,Write,ACK
20.872657499999999,206,0x73,0x00,Read,NAK
20.884884499999998,207,0x72,0x3D,Write,ACK
20.885104500000001,208,0x73,0x00,Read,NAK
20.891456000000002,209,0x72,0x3D,Write,ACK
20.891676000000000,210,0x73,0x00,Read,ACK
20.891781000000002,210,0x73,0x00,Read,NAK
20.904433999999998,211,0x72,0x3D,Write,ACK
20.904655999999999,212,0x73,0x00,Read,NAK
20.909459500000001,213,0x72,0x3D,Write,ACK
20.909681500000001,214,0x73,0x00,Read,NAK
20.919448500000001,215,0x72,0x3D,Write,ACK
20.919668500000000,216,0x73,0x00,Read,ACK
20.919773500000002,216,0x73,0x00,Read,NAK
20.935536500000001,217,0x72,0x3D,Write,ACK
20.935756500000000,218,0x73,0x00,Read,NAK
20.938165999999999,219,0x72,0x3D,Write,ACK
20.938386000000001,220,0x73,0x00,Read,ACK
20.938490999999999,220,0x73,0x00,Read,NAK
20.960391500000000,221,0x72,0x3D,Write,ACK
20.960611499999999,222,0x73,0x00,Read,NAK
20.961253500000002,223,0x72,0x3D,Write,ACK
20.961473000000002,224,0x73,0x00,Read,NAK
20.965083000000000,225,0xC0,0xA6,Write,ACK
20.965387000000000,226,0xC1,0x80,Read,ACK
20.965491499999999,226,0xC1,0x00,Read,NAK
20.971481499999999,227,0x72,0x3D,Write,ACK
20.971700999999999,228,0x73,0x00,Read,ACK
20.971806000000001,228,0x73,0x00,Read,NAK
20.984338999999999,229,0x72,0x3D,Write,ACK
20.984559000000001,230,0x73,0x00,Read,NAK
21.011437500000000,231,0x72,0x3D,Write,ACK
21.011657499999998,232,0x73,0x00,Read,ACK
21.011762500000000,232,0x73,0x00,Read,NAK
21.012442000000000,233,0x72,0x3D,Write,ACK
21.012664000000001,234,0x73,0x00,Read,NAK
21.013306000000000,235,0x72,0x3D,Write,ACK
21.013528000000001,236,0x73,0x00,Read,NAK
21.035434500000001,237,0x72,0x3D,Write,ACK
21.035654500000000,238,0x73,0x00,Read,ACK
21.035758999999999,238,0x73,0x00,Read,NAK
21.036439000000001,239,0x72,0x3D,Write,ACK
21.036660999999999,240,0x73,0x00,Read,NAK
21.056909500000000,241,0x72,0x3D,Write,ACK
21.057131500000001,242,0x73,0x00,Read,NAK
21.058181500000000,243,0x72,0x3D,Write,ACK
21.058401499999999,244,0x73,0x00,Read,ACK
21.058506000000001,244,0x73,0x00,Read,NAK
21.063596000000000,245,0x72,0x3D,Write,ACK
21.063817499999999,246,0x73,0x00,Read,NAK
21.067401499999999,247,0xC0,0xA6,Write,ACK
21.067703500000000,248,0xC1,0x80,Read,ACK
21.067807999999999,248,0xC1,0x00,Read,NAK
21.076367500000000,249,0x72,0x3D,Write,ACK
21.076589500000001,250,0x73,0x00,Read,NAK
21.091450500000001,251,0x72,0x3D,Write,ACK
21.091670499999999,252,0x73,0x00,Read,ACK
21.091775500000001,252,0x73,0x00,Read,NAK
21.093805000000000,253,0x72,0x3D,Write,ACK
21.094024999999998,254,0x73,0x00,Read,NAK
21.115457500000002,255,0x72,0x3D,Write,ACK
21.115677500000000,256,0x73,0x00,Read,ACK
21.115782500000002,256,0x73,0x00,Read,NAK
21.116462500000001,257,0x72,0x3D,Write,ACK
21.116683999999999,258,0x73,0x00,Read,NAK
21.117325999999998,259,0x72,0x3D,Write,ACK
21.117546000000001,260,0x73,0x00,Read,NAK
21.136908999999999,261,0x72,0x3D,Write,ACK
21.137128499999999,262,0x73,0x00,Read,NAK
21.148236000000001,263,0x72,0x3D,Write,ACK
21.148455999999999,264,0x73,0x00,Read,ACK
21.148560499999999,264,0x73,0x00,Read,NAK
21.164379499999999,265,0x72,0x3D,Write,ACK
21.164599500000001,266,0x73,0x00,Read,NAK
21.165375500000000,267,0xC0,0xA6,Write,ACK
21.165595499999998,268,0xC1,0x80,Read,ACK
21.165700000000001,268,0xC1,0x00,Read,NAK
21.171579999999999,269,0x72,0x3D,Write,ACK
21.171799499999999,270,0x73,0x00,Read,NAK
21.183463000000000,271,0x72,0x3D,Write,ACK
21.183682999999998,272,0x73,0x00,Read,ACK
21.183787500000001,272,0x73,0x00,Read,NAK
21.185837500000002,273,0x72,0x3D,Write,ACK
21.186059499999999,274,0x73,0x00,Read,NAK
21.209122000000001,275,0x72,0x3D,Write,ACK
21.209341999999999,276,0x73,0x00,Read,ACK
21.209446499999999,276,0x73,0x00,Read,NAK
21.210128500000000,277,0x72,0x3D,Write,ACK
21.210350500000001,278,0x73,0x00,Read,NAK
21.227563499999999,279,0x72,0x3D,Write,ACK
21.227785500000000,280,0x73,0x00,Read,NAK
21.232583000000002,281,0x72,0x3D,Write,ACK
21.232804999999999,282,0x73,0x00,Read,NAK
21.243445999999999,283,0x72,0x3D,Write,ACK
21.243666000000001,284,0x73,0x00,Read,ACK
21.243770999999999,284,0x73,0x00,Read,NAK
21.256322000000001,285,0x72,0x3D,Write,ACK
21.256544000000002,286,0x73,0x00,Read,NAK
21.271429000000001,287,0x72,0x3D,Write,ACK
21.271649000000000,288,0x73,0x00,Read,ACK
21.271754000000001,288,0x73,0x00,Read,NAK
21.272621500000000,289,0xC0,0xA6,Write,ACK
21.272841499999998,290,0xC1,0x80,Read,ACK
21.272946500000000,290,0xC1,0x00,Read,NAK
21.283515500000000,291,0x72,0x3D,Write,ACK
21.283737500000001,292,0x73,0x00,Read,NAK
21.284377500000002,293,0x72,0x3D,Write,ACK
21.284599499999999,294,0x73,0x00,Read,NAK
21.295440500000002,295,0x72,0x3D,Write,ACK
21.295660500000000,296,0x73,0x00,Read,ACK
21.295765500000002,296,0x73,0x00,Read,NAK
21.307564500000002,297,0x72,0x3D,Write,ACK
21.307784500000000,298,0x73,0x00,Read,NAK
21.324771500000001,299,0x72,0x3D,Write,ACK
21.324991499999999,300,0x73,0x00,Read,ACK
21.325095999999998,300,0x73,0x00,Read,NAK
21.325782000000000,301,0x72,0x3D,Write,ACK
21.326004000000001,302,0x73,0x00,Read,NAK
21.339556999999999,303,0x72,0x3D,Write,ACK
21.339777000000002,304,0x73,0x00,Read,NAK
21.359482000000000,305,0x72,0x3D,Write,ACK
21.359701500000000,306,0x73,0x00,Read,ACK
21.359806500000001,306,0x73,0x00,Read,NAK
21.360488499999999,307,0x72,0x3D,Write,ACK
21.360710500000000,308,0x73,0x00,Read,NAK
21.376505500000000,309,0xC0,0xA6,Write,ACK
21.376725000000000,310,0xC1,0x80,Read,ACK
21.376830000000002,310,0xC1,0x00,Read,NAK
21.388225500000001,311,0x72,0x3D,Write,ACK
21.388445000000001,312,0x73,0x00,Read,ACK
21.388549999999999,312,0x73,0x00,Read,NAK
21.389230000000001,313,0x72,0x3D,Write,ACK
21.389450000000000,314,0x73,0x00,Read,NAK
21.395569500000001,315,0x72,0x3D,Write,ACK
21.395789499999999,316,0x73,0x00,Read,NAK
21.408882500000001,317,0x72,0x3D,Write,ACK
21.409102499999999,318,0x73,0x00,Read,NAK
21.416305999999999,319,0x72,0x3D,Write,ACK
21.416525499999999,320,0x73,0x00,Read,ACK
21.416630500000000,320,0x73,0x00,Read,NAK
21.432311500000001,321,0x72,0x3D,Write,ACK
21.432533500000002,322,0x73,0x00,Read,NAK
21.435151500000000,323,0x72,0x3D,Write,ACK
21.435371000000000,324,0x73,0x00,Read,ACK
21.435476000000001,324,0x73,0x00,Read,NAK
21.452366999999999,325,0x72,0x3D,Write,ACK
21.452587000000001,326,0x73,0x00,Read,NAK
21.467587999999999,327,0x72,0x3D,Write,ACK
21.467808000000002,328,0x73,0x00,Read,NAK
21.475415500000000,329,0x72,0x3D,Write,ACK
21.475635000000000,330,0x73,0x00,Read,ACK
21.475739999999998,330,0x73,0x00,Read,NAK
21.476607999999999,331,0xC0,0xA6,Write,ACK
21.476828000000001,332,0xC1,0x80,Read,ACK
21.476932500000000,332,0xC1,0x00,Read,NAK
21.495503500000002,333,0x72,0x3D,Write,ACK
21.495723500000000,334,0x73,0x00,Read,NAK
21.504217000000001,335,0x72,0x3D,Write,ACK
21.504436999999999,336,0x73,0x00,Read,ACK
21.504541499999998,336,0x73,0x00,Read,NAK
21.505271499999999,337,0x72,0x3D,Write,ACK
21.505493500000000,338,0x73,0x00,Read,NAK
21.519562499999999,339,0x72,0x3D,Write,ACK
21.519782500000002,340,0x73,0x00,Read,NAK
21.535411499999999,341,0x72,0x3D,Write,ACK
21.535631500000001,342,0x73,0x00,Read,ACK
21.535736000000000,342,0x73,0x00,Read,NAK
21.543499499999999,343,0x72,0x3D,Write,ACK
21.543719500000002,344,0x73,0x00,Read,NAK
21.554085000000001,345,0x72,0x3D,Write,ACK
21.554304500000001,346,0x73,0x00,Read,ACK
21.554409499999998,346,0x73,0x00,Read,NAK
21.555299500000000,347,0x72,0x3D,Write,ACK
21.555519499999999,348,0x73,0x00,Read,NAK
21.556159000000001,349,0x72,0x3D,Write,ACK
21.556379000000000,350,0x73,0x00,Read,NAK
21.579501499999999,351,0x72,0x3D,Write,ACK
21.579723500000000,352,0x73,0x00,Read,NAK
21.580503499999999,353,0xC0,0xA6,Write,ACK
21.580723500000001,354,0xC1,0x80,Read,ACK
21.580828000000000,354,0xC1,0x00,Read,NAK
21.587402000000001,355,0x72,0x3D,Write,ACK
21.587621500000001,356,0x73,0x00,Read,ACK
21.587726499999999,356,0x73,0x00,Read,NAK
21.596845999999999,357,0x72,0x3D,Write,ACK
21.597068000000000,358,0x73,0x00,Read,NAK
21.604345500000001,359,0x72,0x3D,Write,ACK
21.604565000000001,360,0x73,0x00,Read,NAK
21.625114000000000,361,0x72,0x3D,Write,ACK
21.625333999999999,362,0x73,0x00,Read,ACK
21.625438500000001,362,0x73,0x00,Read,NAK
21.626114500000000,363,0x72,0x3D,Write,ACK
21.626336500000001,364,0x73,0x00,Read,NAK
21.641451499999999,365,0xC0,0xA6,Write,ACK
21.641671500000001,366,0xC1,0x80,Read,NAK
21.642221500000002,367,0xC0,0xA6,Write,ACK
21.642326000000001,367,0xC0,0x64,Write,ACK
21.642430999999998,367,0xC0,0x02,Write,ACK
21.643189000000000,368,0xC0,0x89,Write,ACK
21.643294000000001,368,0xC0,0x0F,Write,ACK
21.643839499999999,369,0xC0,0x8F,Write,ACK
21.643944500000000,369,0xC0,0x80,Write,ACK
21.644490500000000,370,0xC0,0x90,Write,ACK
21.644595500000001,370,0xC0,0x10,Write,ACK
21.644698000000002,370,0xC0,0x00,Write,ACK
21.644803000000000,370,0xC0,0x40,Write,ACK
21.644905999999999,370,0xC0,0x00,Write,ACK
21.645451999999999,371,0xC0,0x9F,Write,ACK
21.645557000000000,371,0xC0,0x14,Write,ACK
21.655546000000001,372,0x72,0x3D,Write,ACK
21.655766000000000,373,0x73,0x00,Read,NAK
21.660447500000000,374,0x72,0x3D,Write,ACK
21.660667499999999,375,0x73,0x00,Read,ACK
21.660772500000000,375,0x73,0x00,Read,NAK
21.661450500000001,376,0x72,0x3D,Write,ACK
21.661671999999999,377,0x73,0x00,Read,NAK
21.679532999999999,378,0x72,0x3D,Write,ACK
21.679755000000000,379,0x73,0x00,Read,NAK
21.680486999999999,380,0xC0,0xA6,Write,ACK
21.680706499999999,381,0xC1,0x80,Read,ACK
21.680811500000001,381,0xC1,0x00,Read,NAK
21.693221000000001,382,0x72,0x3D,Write,ACK
21.693440500000001,383,0x73,0x00,Read,ACK
21.693545499999999,383,0x73,0x00,Read,NAK
21.694967500000001,384,0x72,0x3D,Write,ACK
21.695189500000001,385,0x73,0x00,Read,NAK
21.712337999999999,386,0x72,0x3D,Write,ACK
21.712558000000001,387,0x73,0x00,Read,NAK
21.723429500000002,388,0x72,0x3D,Write,ACK
21.723651499999999,389,0x73,0x00,Read,ACK
21.723756000000002,389,0x73,0x00,Read,NAK
21.724436000000001,390,0x72,0x3D,Write,ACK
21.724658000000002,391,0x73,0x00,Read,NAK
21.747394499999999,392,0x72,0x3D,Write,ACK
21.747614500000001,393,0x73,0x00,Read,ACK
21.747719499999999,393,0x73,0x00,Read,NAK
21.748394999999999,394,0x72,0x3D,Write,ACK
21.748616999999999,395,0x73,0x00,Read,NAK
21.763528000000001,396,0x72,0x3D,Write,ACK
21.763750000000002,397,0x73,0x00,Read,NAK
21.782160999999999,398,0x72,0x3D,Write,ACK
21.782381000000001,399,0x73,0x00,Read,ACK
21.782485500000000,399,0x73,0x00,Read,NAK
21.783389499999998,400,0x72,0x3D,Write,ACK
21.783609500000001,401,0x73,0x00,Read,NAK
21.784345500000001,402,0xC0,0xA6,Write,ACK
21.784565000000001,403,0xC1,0x00,Read,ACK
21.784669999999998,403,0xC1,0x00,Read,NAK
21.808290499999998,404,0x72,0x3D,Write,ACK
21.808512499999999,405,0x73,0x00,Read,NAK
21.815387999999999,406,0x72,0x3D,Write,ACK
21.815608000000001,407,0x73,0x00,Read,ACK
21.815712999999999,407,0x73,0x00,Read,NAK
21.816442500000001,408,0x72,0x3D,Write,ACK
21.816664500000002,409,0x73,0x00,Read,NAK
21.829705499999999,410,0x72,0x3D,Write,ACK
21.829927500000000,411,0x73,0x00,Read,NAK
21.832493500000002,412,0x72,0x3D,Write,ACK
21.832712999999998,413,0x73,0x00,Read,ACK
21.832818000000000,413,0x73,0x00,Read,NAK
21.859480500000000,414,0x72,0x3D,Write,ACK
21.859702500000001,415,0x73,0x00,Read,NAK
21.871389499999999,416,0x72,0x3D,Write,ACK
21.871609500000002,417,0x73,0x00,Read,ACK
21.871714500000000,417,0x73,0x00,Read,NAK
21.872442499999998,418,0x72,0x3D,Write,ACK
21.872661999999998,419,0x73,0x00,Read,NAK
21.877410000000001,420,0x72,0x3D,Write,ACK
21.877629500000001,421,0x73,0x00,Read,NAK
21.884450999999999,422,0xC0,0xA6,Write,ACK
21.884671000000001,423,0xC1,0xA4,Read,ACK
21.884775999999999,423,0xC1,0x00,Read,NAK
21.885334000000000,424,0xC0,0xA6,Write,ACK
21.885437000000000,424,0xC0,0xA4,Write,ACK
21.885539500000000,424,0xC0,0x00,Write,ACK
21.900195000000000,425,0x72,0x3D,Write,ACK
21.900414500000000,426,0x73,0x00,Read,ACK
21.900519500000001,426,0x73,0x00,Read,NAK
21.901199500000001,427,0x72,0x3D,Write,ACK
21.901421500000001,428,0x73,0x00,Read,NAK
21.927475500000000,429,0x72,0x3D,Write,ACK
21.927695499999999,430,0x73,0x00,Read,NAK
21.928335499999999,431,0x72,0x3D,Write,ACK
21.928555500000002,432,0x73,0x00,Read,NAK
21.933243000000001,433,0x72,0x3D,Write,ACK
21.933463000000000,434,0x73,0x00,Read,ACK
21.933568000000001,434,0x73,0x00,Read,NAK
21.944775000000000,435,0x72,0x3D,Write,ACK
21.944997000000001,436,0x73,0x00,Read,NAK
21.960705999999998,437,0x72,0x3D,Write,ACK
21.960926000000001,438,0x73,0x00,Read,ACK
21.961030500000000,438,0x73,0x00,Read,NAK
21.961714499999999,439,0x72,0x3D,Write,ACK
21.961936500000000,440,0x73,0x00,Read,NAK
21.984332999999999,441,0x72,0x3D,Write,ACK
21.984552999999998,442,0x73,0x00,Read,NAK
21.985196999999999,443,0x72,0x3D,Write,ACK
21.985417000000002,444,0x73,0x00,Read,NAK
21.989002500000002,445,0xC0,0xA6,Write,ACK
21.989306500000001,446,0xC1,0x80,Read,ACK
21.989411000000000,446,0xC1,0x00,Read,NAK
21.995426999999999,447,0x72,0x3D,Write,ACK
21.995646499999999,448,0x73,0x00,Read,ACK
21.995751500000001,448,0x73,0x00,Read,NAK
22.008282999999999,449,0x72,0x3D,Write,ACK
22.008502499999999,450,0x73,0x00,Read,NAK
22.036269000000001,451,0x72,0x3D,Write,ACK
22.036489000000000,452,0x73,0x00,Read,ACK
22.036594000000001,452,0x73,0x00,Read,NAK
22.037271499999999,453,0x72,0x3D,Write,ACK
