Time [s],Packet ID,Address,Data,Read/Write,ACK/NAK
0.000619000000000,0,0x60,0x69,Write,ACK
0.000720000000000,0,0x60,0x80,Write,ACK
0.001253500000000,1,0x60,0x6E,Write,ACK
0.001471500000000,2,0x61,0xBA,Read,ACK
0.001576500000000,2,0x61,0x00,Read,NAK
0.002114500000000,3,0x60,0x6E,Write,ACK
0.002422000000000,4,0x61,0xBB,Read,ACK
0.002531000000000,4,0x61,0x00,Read,NAK
0.003077000000000,5,0x60,0x69,Write,ACK
0.003178000000000,5,0x60,0xFF,Write,ACK
0.003795500000000,6,0x60,0x70,Write,ACK
0.004013500000000,7,0x61,0x00,Read,NAK
0.004563500000000,8,0x60,0x61,Write,ACK
0.004781500000000,9,0x61,0x00,Read,NAK
0.023014500000000,10,0x68,0x34,Write,ACK
0.023232000000000,11,0x69,0x00,Read,NAK
0.023774000000000,12,0x60,0x6E,Write,ACK
0.023992000000000,13,0x61,0x73,Read,ACK
0.024097000000000,13,0x61,0x01,Read,NAK
0.024636500000000,14,0x60,0x69,Write,ACK
0.024737500000000,14,0x60,0x80,Write,ACK
0.025269500000000,15,0x60,0x6E,Write,ACK
0.025487500000000,16,0x61,0xBB,Read,ACK
0.025592000000000,16,0x61,0x00,Read,NAK
0.026128000000000,17,0x60,0x6E,Write,ACK
0.026536000000000,18,0x61,0xBA,Read,ACK
0.026641000000000,18,0x61,0x00,Read,NAK
0.027183000000000,19,0x60,0x69,Write,ACK
0.027283500000000,19,0x60,0xFF,Write,ACK
0.027901500000000,20,0x60,0x70,Write,ACK
0.028119500000000,21,0x61,0x00,Read,NAK
0.028681500000000,22,0x68,0x34,Write,ACK
0.028899000000000,23,0x69,0x00,Read,NAK
0.039006500000000,24,0x68,0x34,Write,ACK
0.039224500000000,25,0x69,0x00,Read,NAK
0.039764500000000,26,0x60,0x6E,Write,ACK
0.039982000000000,27,0x61,0x73,Read,ACK
0.040087000000000,27,0x61,0x01,Read,NAK
0.040627000000000,28,0x60,0x69,Write,ACK
0.040728000000000,28,0x60,0x80,Write,ACK
0.041261500000000,29,0x60,0x6E,Write,ACK
0.041479500000000,30,0x61,0xBB,Read,ACK
0.041584500000000,30,0x61,0x00,Read,NAK
0.042122500000000,31,0x60,0x6E,Write,ACK
0.042430000000000,32,0x61,0xBB,Read,ACK
0.042535000000000,32,0x61,0x00,Read,NAK
0.043083000000000,33,0x60,0x69,Write,ACK
0.043184000000000,33,0x60,0xFF,Write,ACK
0.043802000000000,34,0x60,0x70,Write,ACK
0.044019500000000,35,0x61,0x00,Read,NAK
0.054995000000000,36,0x68,0x34,Write,ACK
0.055213000000000,37,0x69,0x00,Read,NAK
0.055754500000000,38,0x60,0x6E,Write,ACK
0.055972500000000,39,0x61,0x73,Read,ACK
0.056077500000000,39,0x61,0x01,Read,NAK
0.056619500000000,40,0x60,0x69,Write,ACK
0.056720500000000,40,0x60,0x80,Write,ACK
0.057254000000000,41,0x60,0x6E,Write,ACK
0.057472000000000,42,0x61,0xBB,Read,ACK
0.057577000000000,42,0x61,0x00,Read,NAK
0.058119000000000,43,0x60,0x6E,Write,ACK
0.058426500000000,44,0x61,0xBA,Read,ACK
0.058531500000000,44,0x61,0x00,Read,NAK
0.059077500000000,45,0x60,0x69,Write,ACK
0.059178500000000,45,0x60,0xFF,Write,ACK
0.059800000000000,46,0x60,0x70,Write,ACK
0.060018000000000,47,0x61,0x00,Read,NAK
0.060580000000000,48,0x68,0x34,Write,ACK
0.060798000000000,49,0x69,0x00,Read,NAK
0.071203000000000,50,0x68,0x34,Write,ACK
0.071421000000000,51,0x69,0x00,Read,NAK
0.071961000000000,52,0x60,0x6E,Write,ACK
0.072179000000000,53,0x61,0x74,Read,ACK
0.072284000000000,53,0x61,0x01,Read,NAK
0.072825500000000,54,0x60,0x69,Write,ACK
0.072926500000000,54,0x60,0x80,Write,ACK
0.073460500000000,55,0x60,0x6E,Write,ACK
0.073678500000000,56,0x61,0xBB,Read,ACK
0.073783000000000,56,0x61,0x00,Read,NAK
0.074513000000000,57,0x60,0x6E,Write,ACK
0.074733000000000,58,0x61,0xBA,Read,ACK
0.074838000000000,58,0x61,0x00,Read,NAK
0.075379500000000,59,0x60,0x69,Write,ACK
0.075480500000000,59,0x60,0xFF,Write,ACK
0.076100500000000,60,0x60,0x70,Write,ACK
0.076318500000000,61,0x61,0x00,Read,NAK
0.077404000000000,62,0x60,0x61,Write,ACK
0.077622000000000,63,0x61,0x00,Read,NAK
0.079644000000000,64,0x68,0x34,Write,ACK
0.079862000000000,65,0x69,0x00,Read,NAK
0.086997500000000,66,0x68,0x34,Write,ACK
0.087215000000000,67,0x69,0x00,Read,NAK
0.087753000000000,68,0x60,0x6E,Write,ACK
0.087969000000000,69,0x61,0x73,Read,ACK
0.088074000000000,69,0x61,0x01,Read,NAK
0.088615500000000,70,0x60,0x69,Write,ACK
0.088716500000000,70,0x60,0x80,Write,ACK
0.089250500000000,71,0x60,0x6E,Write,ACK
0.089468500000000,72,0x61,0xBB,Read,ACK
0.089573500000000,72,0x61,0x00,Read,NAK
0.090113000000000,73,0x60,0x6E,Write,ACK
0.090421000000000,74,0x61,0xBB,Read,ACK
0.090526000000000,74,0x61,0x00,Read,NAK
0.091070000000000,75,0x60,0x69,Write,ACK
0.091170500000000,75,0x60,0xFF,Write,ACK
0.091790500000000,76,0x60,0x70,Write,ACK
0.092008500000000,77,0x61,0x00,Read,NAK
0.106995500000000,78,0x68,0x34,Write,ACK
0.107213500000000,79,0x69,0x00,Read,NAK
0.107751500000000,80,0x60,0x6E,Write,ACK
0.107969000000000,81,0x61,0x74,Read,ACK
0.108074000000000,81,0x61,0x01,Read,NAK
0.108614000000000,82,0x60,0x69,Write,ACK
0.108715000000000,82,0x60,0x80,Write,ACK
0.109246500000000,83,0x60,0x6E,Write,ACK
0.109464500000000,84,0x61,0xBA,Read,ACK
0.109569500000000,84,0x61,0x00,Read,NAK
0.110107500000000,85,0x60,0x6E,Write,ACK
0.110415500000000,86,0x61,0xBB,Read,ACK
0.110520000000000,86,0x61,0x00,Read,NAK
0.111064000000000,87,0x60,0x69,Write,ACK
0.111165000000000,87,0x60,0xFF,Write,ACK
0.111781000000000,88,0x60,0x70,Write,ACK
0.111998500000000,89,0x61,0x00,Read,NAK
0.117532500000000,90,0x60,0x70,Write,ACK
0.117820000000000,91,0x61,0x00,Read,NAK
0.118774000000000,92,0x68,0x34,Write,ACK
0.118992000000000,93,0x69,0x00,Read,NAK
0.126995500000000,94,0x68,0x34,Write,ACK
0.127213500000000,95,0x69,0x00,Read,NAK
0.127753000000000,96,0x60,0x6E,Write,ACK
0.127971000000000,97,0x61,0x73,Read,ACK
0.128076000000000,97,0x61,0x01,Read,NAK
0.128618000000000,98,0x60,0x69,Write,ACK
0.128718500000000,98,0x60,0x80,Write,ACK
0.129250500000000,99,0x60,0x6E,Write,ACK
0.129468500000000,100,0x61,0xBB,Read,ACK
0.129573500000000,100,0x61,0x00,Read,NAK
0.130111000000000,101,0x60,0x6E,Write,ACK
0.130421000000000,102,0x61,0xBB,Read,ACK
0.130526000000000,102,0x61,0x00,Read,NAK
0.131072000000000,103,0x60,0x69,Write,ACK
0.131172500000000,103,0x60,0xFF,Write,ACK
0.131790500000000,104,0x60,0x70,Write,ACK
0.132008500000000,105,0x61,0x00,Read,NAK
0.132560500000000,106,0x60,0x61,Write,ACK
0.132778500000000,107,0x61,0x00,Read,NAK
0.150999000000000,108,0x68,0x34,Write,ACK
0.151217000000000,109,0x69,0x00,Read,NAK
0.151755000000000,110,0x60,0x6E,Write,ACK
0.151973000000000,111,0x61,0x74,Read,ACK
0.152077500000000,111,0x61,0x01,Read,NAK
0.152617500000000,112,0x60,0x69,Write,ACK
0.152718500000000,112,0x60,0x80,Write,ACK
0.153252500000000,113,0x60,0x6E,Write,ACK
0.153470500000000,114,0x61,0xBB,Read,ACK
0.153575000000000,114,0x61,0x00,Read,NAK
0.154115000000000,115,0x60,0x6E,Write,ACK
0.154423000000000,116,0x61,0xBB,Read,ACK
0.154528000000000,116,0x61,0x00,Read,NAK
0.155069500000000,117,0x60,0x69,Write,ACK
0.155170500000000,117,0x60,0xFF,Write,ACK
0.155788500000000,118,0x60,0x70,Write,ACK
0.156006500000000,119,0x61,0x00,Read,NAK
0.156568000000000,120,0x68,0x34,Write,ACK
0.156786000000000,121,0x69,0x00,Read,NAK
0.171023000000000,122,0x68,0x34,Write,ACK
0.171241000000000,123,0x69,0x00,Read,NAK
0.171783000000000,124,0x60,0x6E,Write,ACK
0.172001000000000,125,0x61,0x73,Read,ACK
0.172106000000000,125,0x61,0x01,Read,NAK
0.172647500000000,126,0x60,0x69,Write,ACK
0.172748500000000,126,0x60,0x80,Write,ACK
0.173282500000000,127,0x60,0x6E,Write,ACK
0.173500500000000,128,0x61,0xBB,Read,ACK
0.173605000000000,128,0x61,0x00,Read,NAK
0.174147000000000,129,0x60,0x6E,Write,ACK
0.174527000000000,130,0x61,0xBA,Read,ACK
0.174632000000000,130,0x61,0x00,Read,NAK
0.175177500000000,131,0x60,0x69,Write,ACK
0.175278500000000,131,0x60,0xFF,Write,ACK
0.175900500000000,132,0x60,0x70,Write,ACK
0.176118500000000,133,0x61,0x00,Read,NAK
0.177200000000000,134,0x68,0x34,Write,ACK
0.177418000000000,135,0x69,0x00,Read,NAK
0.186993500000000,136,0x68,0x34,Write,ACK
0.187211500000000,137,0x69,0x00,Read,NAK
0.187749500000000,138,0x60,0x6E,Write,ACK
0.187967000000000,139,0x61,0x73,Read,ACK
0.188072000000000,139,0x61,0x01,Read,NAK
0.188612000000000,140,0x60,0x69,Write,ACK
0.188713000000000,140,0x60,0x80,Write,ACK
0.189246500000000,141,0x60,0x6E,Write,ACK
0.189464500000000,142,0x61,0xBB,Read,ACK
0.189569500000000,142,0x61,0x00,Read,NAK
0.190107500000000,143,0x60,0x6E,Write,ACK
0.190415000000000,144,0x61,0xBA,Read,ACK
0.190520000000000,144,0x61,0x00,Read,NAK
0.191064000000000,145,0x60,0x69,Write,ACK
0.191165000000000,145,0x60,0xFF,Write,ACK
0.191785000000000,146,0x60,0x70,Write,ACK
0.192002500000000,147,0x61,0x00,Read,NAK
0.193992500000000,148,0x60,0x61,Write,ACK
0.194210500000000,149,0x61,0x00,Read,NAK
0.202994000000000,150,0x68,0x34,Write,ACK
0.203211500000000,151,0x69,0x00,Read,NAK
0.203751500000000,152,0x60,0x6E,Write,ACK
0.203969500000000,153,0x61,0x73,Read,ACK
0.204074500000000,153,0x61,0x01,Read,NAK
0.204616000000000,154,0x60,0x69,Write,ACK
0.204717000000000,154,0x60,0x80,Write,ACK
0.205251000000000,155,0x60,0x6E,Write,ACK
0.205469000000000,156,0x61,0xBB,Read,ACK
0.205573500000000,156,0x61,0x00,Read,NAK
0.206113500000000,157,0x60,0x6E,Write,ACK
0.206419500000000,158,0x61,0xBA,Read,ACK
0.206524500000000,158,0x61,0x00,Read,NAK
0.207070000000000,159,0x60,0x69,Write,ACK
0.207171000000000,159,0x60,0xFF,Write,ACK
0.207793000000000,160,0x60,0x70,Write,ACK
0.208011000000000,161,0x61,0x00,Read,NAK
0.208575000000000,162,0x68,0x34,Write,ACK
0.208792500000000,163,0x69,0x00,Read,NAK
0.219020000000000,164,0x68,0x34,Write,ACK
0.219238000000000,165,0x69,0x00,Read,NAK
0.219780000000000,166,0x60,0x6E,Write,ACK
0.219997500000000,167,0x61,0x73,Read,ACK
0.220102500000000,167,0x61,0x01,Read,NAK
0.220644500000000,168,0x60,0x69,Write,ACK
0.220745500000000,168,0x60,0x80,Write,ACK
0.221277000000000,169,0x60,0x6E,Write,ACK
0.221493000000000,170,0x61,0xBB,Read,ACK
0.221598000000000,170,0x61,0x00,Read,NAK
0.222136000000000,171,0x60,0x6E,Write,ACK
0.222525500000000,172,0x61,0xBA,Read,ACK
0.222630500000000,172,0x61,0x00,Read,NAK
0.223174500000000,173,0x60,0x69,Write,ACK
0.223275500000000,173,0x60,0xFF,Write,ACK
0.223895500000000,174,0x60,0x70,Write,ACK
0.224113000000000,175,0x61,0x00,Read,NAK
0.234990500000000,176,0x68,0x34,Write,ACK
0.235208500000000,177,0x69,0x00,Read,NAK
0.235748000000000,178,0x60,0x6E,Write,ACK
0.235966000000000,179,0x61,0x73,Read,ACK
0.236071000000000,179,0x61,0x01,Read,NAK
0.236611000000000,180,0x60,0x69,Write,ACK
0.236712000000000,180,0x60,0x80,Write,ACK
0.237245500000000,181,0x60,0x6E,Write,ACK
0.237463500000000,182,0x61,0xBB,Read,ACK
0.237568500000000,182,0x61,0x00,Read,NAK
0.238108500000000,183,0x60,0x6E,Write,ACK
0.238416000000000,184,0x61,0xBB,Read,ACK
0.238521000000000,184,0x61,0x00,Read,NAK
0.239067000000000,185,0x60,0x69,Write,ACK
0.239168000000000,185,0x60,0xFF,Write,ACK
0.239789500000000,186,0x60,0x70,Write,ACK
0.240007500000000,187,0x61,0x00,Read,NAK
0.240569500000000,188,0x68,0x34,Write,ACK
0.240787500000000,189,0x69,0x00,Read,NAK
0.250992500000000,190,0x68,0x34,Write,ACK
0.251210500000000,191,0x69,0x00,Read,NAK
0.251748500000000,192,0x60,0x6E,Write,ACK
0.251966500000000,193,0x61,0x73,Read,ACK
0.252071500000000,193,0x61,0x01,Read,NAK
0.252611000000000,194,0x60,0x69,Write,ACK
0.252712000000000,194,0x60,0x80,Write,ACK
0.253246000000000,195,0x60,0x6E,Write,ACK
0.253464000000000,196,0x61,0xBA,Read,ACK
0.253568500000000,196,0x61,0x00,Read,NAK
0.254106500000000,197,0x60,0x6E,Write,ACK
0.254414500000000,198,0x61,0xBA,Read,ACK
0.254519500000000,198,0x61,0x00,Read,NAK
0.255065000000000,199,0x60,0x69,Write,ACK
0.255166000000000,199,0x60,0xFF,Write,ACK
0.255788000000000,200,0x60,0x70,Write,ACK
0.256006000000000,201,0x61,0x00,Read,NAK
0.259015500000000,202,0x60,0x61,Write,ACK
0.259233500000000,203,0x61,0x00,Read,NAK
0.261209500000000,204,0x60,0x70,Write,ACK
0.261427000000000,205,0x61,0x00,Read,NAK
0.261985000000000,206,0x68,0x34,Write,ACK
0.262203000000000,207,0x69,0x00,Read,NAK
0.279000000000000,208,0x68,0x34,Write,ACK
0.279218000000000,209,0x69,0x00,Read,NAK
0.279761500000000,210,0x60,0x6E,Write,ACK
0.279979500000000,211,0x61,0x73,Read,ACK
0.280084500000000,211,0x61,0x01,Read,NAK
0.280624500000000,212,0x60,0x69,Write,ACK
0.280727500000000,212,0x60,0x80,Write,ACK
0.281259000000000,213,0x60,0x6E,Write,ACK
0.281477000000000,214,0x61,0xBB,Read,ACK
0.281582000000000,214,0x61,0x00,Read,NAK
0.282120000000000,215,0x60,0x6E,Write,ACK
0.282521500000000,216,0x61,0xBA,Read,ACK
0.282626500000000,216,0x61,0x00,Read,NAK
0.283168500000000,217,0x60,0x69,Write,ACK
0.283269500000000,217,0x60,0xFF,Write,ACK
0.283891000000000,218,0x60,0x70,Write,ACK
0.284109000000000,219,0x61,0x00,Read,NAK
0.298986000000000,220,0x68,0x34,Write,ACK
0.299204000000000,221,0x69,0x00,Read,NAK
0.299742000000000,222,0x60,0x6E,Write,ACK
0.299960000000000,223,0x61,0x74,Read,ACK
0.300064500000000,223,0x61,0x01,Read,NAK
0.300604500000000,224,0x60,0x69,Write,ACK
0.300705500000000,224,0x60,0x80,Write,ACK
0.301239500000000,225,0x60,0x6E,Write,ACK
0.301457500000000,226,0x61,0xBB,Read,ACK
0.301562000000000,226,0x61,0x00,Read,NAK
0.302100000000000,227,0x60,0x6E,Write,ACK
0.302408000000000,228,0x61,0xBB,Read,ACK
0.302513000000000,228,0x61,0x00,Read,NAK
0.303058500000000,229,0x60,0x69,Write,ACK
0.303159500000000,229,0x60,0xFF,Write,ACK
0.303777500000000,230,0x60,0x70,Write,ACK
0.303995500000000,231,0x61,0x00,Read,NAK
0.305991000000000,232,0x68,0x34,Write,ACK
0.306209000000000,233,0x69,0x00,Read,NAK
0.314984500000000,234,0x68,0x34,Write,ACK
0.315202500000000,235,0x69,0x00,Read,NAK
0.315742000000000,236,0x60,0x6E,Write,ACK
0.315960000000000,237,0x61,0x74,Read,ACK
0.316065000000000,237,0x61,0x01,Read,NAK
0.316607000000000,238,0x60,0x69,Write,ACK
0.316707500000000,238,0x60,0x80,Write,ACK
0.317243500000000,239,0x60,0x6E,Write,ACK
0.317461500000000,240,0x61,0xBA,Read,ACK
0.317566500000000,240,0x61,0x00,Read,NAK
0.318108500000000,241,0x60,0x6E,Write,ACK
0.318416000000000,242,0x61,0xBA,Read,ACK
0.318521000000000,242,0x61,0x00,Read,NAK
0.319069000000000,243,0x60,0x69,Write,ACK
0.319170000000000,243,0x60,0xFF,Write,ACK
0.319789500000000,244,0x60,0x70,Write,ACK
0.320007500000000,245,0x61,0x00,Read,NAK
0.320559500000000,246,0x60,0x61,Write,ACK
0.320777500000000,247,0x61,0x00,Read,NAK
0.338996500000000,248,0x68,0x34,Write,ACK
0.339214000000000,249,0x69,0x00,Read,NAK
0.339754000000000,250,0x60,0x6E,Write,ACK
0.339972000000000,251,0x61,0x74,Read,ACK
0.340077000000000,251,0x61,0x01,Read,NAK
0.340616500000000,252,0x60,0x69,Write,ACK
0.340717500000000,252,0x60,0x80,Write,ACK
0.341251500000000,253,0x60,0x6E,Write,ACK
0.341469500000000,254,0x61,0xBB,Read,ACK
0.341574000000000,254,0x61,0x00,Read,NAK
0.342112000000000,255,0x60,0x6E,Write,ACK
0.342518000000000,256,0x61,0xBA,Read,ACK
0.342623000000000,256,0x61,0x00,Read,NAK
0.343166500000000,257,0x60,0x69,Write,ACK
0.343267500000000,257,0x60,0xFF,Write,ACK
0.343887500000000,258,0x60,0x70,Write,ACK
0.344105500000000,259,0x61,0x00,Read,NAK
0.344667500000000,260,0x68,0x34,Write,ACK
0.344885000000000,261,0x69,0x00,Read,NAK
0.354988500000000,262,0x68,0x34,Write,ACK
0.355206500000000,263,0x69,0x00,Read,NAK
0.355746500000000,264,0x60,0x6E,Write,ACK
0.355964000000000,265,0x61,0x74,Read,ACK
0.356069000000000,265,0x61,0x01,Read,NAK
0.356609000000000,266,0x60,0x69,Write,ACK
0.356710000000000,266,0x60,0x80,Write,ACK
0.357243500000000,267,0x60,0x6E,Write,ACK
0.357461500000000,268,0x61,0xBA,Read,ACK
0.357566500000000,268,0x61,0x00,Read,NAK
0.358106500000000,269,0x60,0x6E,Write,ACK
0.358414000000000,270,0x61,0xBA,Read,ACK
0.358519000000000,270,0x61,0x00,Read,NAK
0.359065000000000,271,0x60,0x69,Write,ACK
0.359166000000000,271,0x60,0xFF,Write,ACK
0.359787500000000,272,0x60,0x70,Write,ACK
0.360005500000000,273,0x61,0x00,Read,NAK
0.370983000000000,274,0x68,0x34,Write,ACK
0.371201000000000,275,0x69,0x00,Read,NAK
0.371740500000000,276,0x60,0x6E,Write,ACK
0.371958500000000,277,0x61,0x73,Read,ACK
0.372063500000000,277,0x61,0x01,Read,NAK
0.372605500000000,278,0x60,0x69,Write,ACK
0.372706500000000,278,0x60,0x80,Write,ACK
0.373240000000000,279,0x60,0x6E,Write,ACK
0.373458000000000,280,0x61,0xBB,Read,ACK
0.373563000000000,280,0x61,0x00,Read,NAK
0.374103000000000,281,0x60,0x6E,Write,ACK
0.374410500000000,282,0x61,0xBB,Read,ACK
0.374515500000000,282,0x61,0x00,Read,NAK
0.375061500000000,283,0x60,0x69,Write,ACK
0.375162500000000,283,0x60,0xFF,Write,ACK
0.375780000000000,284,0x60,0x70,Write,ACK
0.375998000000000,285,0x61,0x00,Read,NAK
0.376558000000000,286,0x68,0x34,Write,ACK
0.376776000000000,287,0x69,0x00,Read,NAK
0.387187000000000,288,0x68,0x34,Write,ACK
0.387405000000000,289,0x69,0x00,Read,NAK
0.387945000000000,290,0x60,0x6E,Write,ACK
0.388163000000000,291,0x61,0x74,Read,ACK
0.388267500000000,291,0x61,0x01,Read,NAK
0.388809500000000,292,0x60,0x69,Write,ACK
0.388910500000000,292,0x60,0x80,Write,ACK
0.389444500000000,293,0x60,0x6E,Write,ACK
0.389662500000000,294,0x61,0xBA,Read,ACK
0.389767000000000,294,0x61,0x00,Read,NAK
0.390497000000000,295,0x60,0x6E,Write,ACK
0.390717000000000,296,0x61,0xBB,Read,ACK
0.390822000000000,296,0x61,0x00,Read,NAK
0.391365500000000,297,0x60,0x69,Write,ACK
0.391466500000000,297,0x60,0xFF,Write,ACK
0.392088500000000,298,0x60,0x70,Write,ACK
0.392306500000000,299,0x61,0x00,Read,NAK
0.393396000000000,300,0x60,0x61,Write,ACK
0.393614000000000,301,0x61,0x00,Read,NAK
0.395734000000000,302,0x68,0x34,Write,ACK
0.395951500000000,303,0x69,0x00,Read,NAK
0.402983500000000,304,0x68,0x34,Write,ACK
0.403201000000000,305,0x69,0x00,Read,NAK
0.403739000000000,306,0x60,0x6E,Write,ACK
0.403957000000000,307,0x61,0x74,Read,ACK
0.404062000000000,307,0x61,0x01,Read,NAK
0.404601500000000,308,0x60,0x69,Write,ACK
0.404702500000000,308,0x60,0x80,Write,ACK
0.405236500000000,309,0x60,0x6E,Write,ACK
0.405454500000000,310,0x61,0xBA,Read,ACK
0.405559000000000,310,0x61,0x00,Read,NAK
0.406099000000000,311,0x60,0x6E,Write,ACK
0.406407000000000,312,0x61,0xBA,Read,ACK
0.406512000000000,312,0x61,0x00,Read,NAK
0.407057500000000,313,0x60,0x69,Write,ACK
0.407158500000000,313,0x60,0xFF,Write,ACK
0.407776500000000,314,0x60,0x70,Write,ACK
0.407994500000000,315,0x61,0x00,Read,NAK
0.422979500000000,316,0x68,0x34,Write,ACK
0.423197500000000,317,0x69,0x00,Read,NAK
0.423737000000000,318,0x60,0x6E,Write,ACK
0.423955000000000,319,0x61,0x73,Read,ACK
0.424060000000000,319,0x61,0x01,Read,NAK
0.424602000000000,320,0x60,0x69,Write,ACK
0.424705000000000,320,0x60,0x80,Write,ACK
0.425238500000000,321,0x60,0x6E,Write,ACK
0.425456500000000,322,0x61,0xBB,Read,ACK
0.425561500000000,322,0x61,0x00,Read,NAK
0.426101500000000,323,0x60,0x6E,Write,ACK
0.426409000000000,324,0x61,0xBB,Read,ACK
0.426514000000000,324,0x61,0x00,Read,NAK
0.427062000000000,325,0x60,0x69,Write,ACK
0.427163000000000,325,0x60,0xFF,Write,ACK
0.427782500000000,326,0x60,0x70,Write,ACK
0.428000500000000,327,0x61,0x00,Read,NAK
0.433586000000000,328,0x60,0x70,Write,ACK
0.433874000000000,329,0x61,0x00,Read,NAK
0.434892000000000,330,0x68,0x34,Write,ACK
0.435110000000000,331,0x69,0x00,Read,NAK
0.442981500000000,332,0x68,0x34,Write,ACK
0.443199000000000,333,0x69,0x00,Read,NAK
0.443737000000000,334,0x60,0x6E,Write,ACK
0.443955000000000,335,0x61,0x74,Read,ACK
0.444060000000000,335,0x61,0x01,Read,NAK
0.444601500000000,336,0x60,0x69,Write,ACK
0.444704500000000,336,0x60,0x80,Write,ACK
0.445238500000000,337,0x60,0x6E,Write,ACK
0.445456500000000,338,0x61,0xBA,Read,ACK
0.445561500000000,338,0x61,0x00,Read,NAK
0.446101000000000,339,0x60,0x6E,Write,ACK
0.446407000000000,340,0x61,0xBA,Read,ACK
0.446512000000000,340,0x61,0x00,Read,NAK
0.447060000000000,341,0x60,0x69,Write,ACK
0.447162500000000,341,0x60,0xFF,Write,ACK
0.447780500000000,342,0x60,0x70,Write,ACK
0.447998500000000,343,0x61,0x00,Read,NAK
0.448550500000000,344,0x60,0x61,Write,ACK
0.448768000000000,345,0x61,0x00,Read,NAK
0.466977000000000,346,0x68,0x34,Write,ACK
0.467195000000000,347,0x69,0x00,Read,NAK
0.467735000000000,348,0x60,0x6E,Write,ACK
0.467953000000000,349,0x61,0x73,Read,ACK
0.468057500000000,349,0x61,0x01,Read,NAK
0.468597500000000,350,0x60,0x69,Write,ACK
0.468698500000000,350,0x60,0x80,Write,ACK
0.469232500000000,351,0x60,0x6E,Write,ACK
0.469450000000000,352,0x61,0xBA,Read,ACK
0.469555000000000,352,0x61,0x00,Read,NAK
0.470093000000000,353,0x60,0x6E,Write,ACK
0.470401000000000,354,0x61,0xBA,Read,ACK
0.470505500000000,354,0x61,0x00,Read,NAK
0.471049500000000,355,0x60,0x69,Write,ACK
