Time [s],Packet ID,Address,Data,Read/Write,ACK/NAK
0.000173500000000,0,0x60,0x61,Write,ACK
0.000391500000000,1,0x61,0x00,Read,NAK
0.011746500000000,2,0x68,0x34,Write,ACK
0.011964500000000,3,0x69,0x00,Read,NAK
0.035695000000000,4,0x68,0x34,Write,ACK
0.035912500000000,5,0x69,0x00,Read,NAK
0.051735500000000,6,0x60,0x06,Write,ACK
0.051953500000000,7,0x61,0x20,Read,NAK
0.054813500000000,8,0x60,0x61,Write,ACK
0.055139000000000,9,0x61,0x00,Read,NAK
0.059725000000000,10,0x68,0x34,Write,ACK
0.059942500000000,11,0x69,0x00,Read,NAK
0.083689000000000,12,0x68,0x34,Write,ACK
0.083907000000000,13,0x69,0x00,Read,NAK
0.107733500000000,14,0x68,0x34,Write,ACK
0.107951500000000,15,0x69,0x00,Read,NAK
0.121908500000000,16,0x60,0x61,Write,ACK
0.122126500000000,17,0x61,0x00,Read,NAK
0.131691500000000,18,0x68,0x34,Write,ACK
0.131909500000000,19,0x69,0x00,Read,NAK
0.153130000000000,20,0x68,0x34,Write,ACK
0.153348000000000,21,0x69,0x00,Read,NAK
0.175690500000000,22,0x68,0x7F,Write,ACK
0.175791500000000,22,0x68,0x81,Write,ACK
0.176317500000000,23,0x60,0x73,Write,ACK
0.176418000000000,23,0x60,0x02,Write,ACK
0.176958000000000,24,0x68,0x34,Write,ACK
0.177176000000000,25,0x69,0x00,Read,NAK
0.196718500000000,26,0x60,0x61,Write,ACK
0.197006500000000,27,0x61,0x00,Read,NAK
0.200076000000000,28,0x68,0x34,Write,ACK
0.200294000000000,29,0x69,0x00,Read,NAK
0.221948500000000,30,0x68,0x34,Write,ACK
0.222166500000000,31,0x69,0x00,Read,NAK
0.247677000000000,32,0x68,0x34,Write,ACK
0.247895000000000,33,0x69,0x00,Read,NAK
0.259738000000000,34,0x60,0x06,Write,ACK
0.259956000000000,35,0x61,0x20,Read,NAK
0.261097500000000,36,0x60,0x61,Write,ACK
0.261315500000000,37,0x61,0x00,Read,NAK
0.271681000000000,38,0x68,0x34,Write,ACK
0.271898500000000,39,0x69,0x00,Read,NAK
0.295675000000000,40,0x68,0x34,Write,ACK
0.295893000000000,41,0x69,0x00,Read,NAK
0.315722000000000,42,0x60,0x61,Write,ACK
0.315939500000000,43,0x61,0x00,Read,NAK
0.317935500000000,44,0x68,0x34,Write,ACK
0.318153500000000,45,0x69,0x00,Read,NAK
0.352603000000000,46,0x68,0x34,Write,ACK
0.352893000000000,47,0x69,0x00,Read,NAK
0.371712000000000,48,0x60,0x61,Write,ACK
0.371929500000000,49,0x61,0x00,Read,NAK
0.379673000000000,50,0x68,0x7F,Write,ACK
0.379774000000000,50,0x68,0x83,Write,ACK
0.380302000000000,51,0x60,0x73,Write,ACK
0.380402500000000,51,0x60,0x02,Write,ACK
0.380948500000000,52,0x68,0x34,Write,ACK
0.381166500000000,53,0x69,0x00,Read,NAK
0.408840500000000,54,0x68,0x34,Write,ACK
0.409058500000000,55,0x69,0x00,Read,NAK
0.425013500000000,56,0x60,0x61,Write,ACK
0.425231500000000,57,0x61,0x00,Read,NAK
0.435670500000000,58,0x68,0x34,Write,ACK
0.435888500000000,59,0x69,0x00,Read,NAK
0.459669000000000,60,0x68,0x34,Write,ACK
0.459887000000000,61,0x69,0x00,Read,NAK
0.471726000000000,62,0x60,0x06,Write,ACK
0.471944000000000,63,0x61,0x20,Read,NAK
0.479655500000000,64,0x60,0x61,Write,ACK
0.479873500000000,65,0x61,0x00,Read,NAK
0.481759000000000,66,0x68,0x34,Write,ACK
0.481977000000000,67,0x69,0x00,Read,NAK
0.510795000000000,68,0x68,0x34,Write,ACK
0.511111000000000,69,0x69,0x00,Read,NAK
0.531667500000000,70,0x68,0x34,Write,ACK
0.531885500000000,71,0x69,0x00,Read,NAK
0.540141000000000,72,0x60,0x61,Write,ACK
0.540359000000000,73,0x61,0x00,Read,NAK
0.555664000000000,74,0x68,0x34,Write,ACK
0.555881500000000,75,0x69,0x00,Read,NAK
0.583726000000000,76,0x68,0x34,Write,ACK
0.583943500000000,77,0x69,0x00,Read,NAK
0.597075000000000,78,0x60,0x61,Write,ACK
0.597292500000000,79,0x61,0x00,Read,NAK
0.607664000000000,80,0x68,0x34,Write,ACK
0.607882000000000,81,0x69,0x00,Read,NAK
0.641945500000000,82,0x68,0x34,Write,ACK
0.642163500000000,83,0x69,0x00,Read,NAK
0.651651000000000,84,0x60,0x61,Write,ACK
0.651869000000000,85,0x61,0x00,Read,NAK
0.667657500000000,86,0x68,0x34,Write,ACK
0.667875500000000,87,0x69,0x00,Read,NAK
0.675685000000000,88,0x60,0x06,Write,ACK
0.675903000000000,89,0x61,0x20,Read,NAK
0.688180000000000,90,0x68,0x34,Write,ACK
0.688398000000000,91,0x69,0x00,Read,NAK
0.705051000000000,92,0x60,0x61,Write,ACK
0.705268500000000,93,0x61,0x00,Read,NAK
0.715658000000000,94,0x68,0x34,Write,ACK
0.715876000000000,95,0x69,0x00,Read,NAK
0.743666000000000,96,0x68,0x34,Write,ACK
0.743884000000000,97,0x69,0x00,Read,NAK
0.759643000000000,98,0x60,0x61,Write,ACK
0.759861000000000,99,0x61,0x00,Read,NAK
0.771646000000000,100,0x68,0x34,Write,ACK
0.771864000000000,101,0x69,0x00,Read,NAK
0.805875500000000,102,0x68,0x34,Write,ACK
0.806093500000000,103,0x69,0x00,Read,NAK
0.821062500000000,104,0x60,0x61,Write,ACK
0.821280500000000,105,0x61,0x00,Read,NAK
0.831653500000000,106,0x68,0x34,Write,ACK
0.831871500000000,107,0x69,0x00,Read,NAK
0.852174000000000,108,0x68,0x34,Write,ACK
0.852392000000000,109,0x69,0x00,Read,NAK
0.875640500000000,110,0x68,0x34,Write,ACK
0.875858500000000,111,0x69,0x00,Read,NAK
0.883676000000000,112,0x60,0x06,Write,ACK
0.883894000000000,113,0x61,0x20,Read,NAK
0.885941500000000,114,0x60,0x61,Write,ACK
0.886159500000000,115,0x61,0x00,Read,NAK
0.895644500000000,116,0x68,0x34,Write,ACK
0.895862500000000,117,0x69,0x00,Read,NAK
0.926772500000000,118,0x68,0x34,Write,ACK
0.927086500000000,119,0x69,0x00,Read,NAK
0.940161500000000,120,0x60,0x61,Write,ACK
0.940379500000000,121,0x61,0x00,Read,NAK
0.951638500000000,122,0x68,0x34,Write,ACK
0.951856500000000,123,0x69,0x00,Read,NAK
0.975637000000000,124,0x68,0x34,Write,ACK
0.975855000000000,125,0x69,0x00,Read,NAK
0.995675500000000,126,0x60,0x61,Write,ACK
0.995893500000000,127,0x61,0x00,Read,NAK
0.996975500000000,128,0x68,0x34,Write,ACK
0.997193000000000,129,0x69,0x00,Read,NAK
1.027657000000000,130,0x68,0x34,Write,ACK
1.027875000000000,131,0x69,0x00,Read,NAK
1.051669500000000,132,0x68,0x34,Write,ACK
1.051887500000000,133,0x69,0x00,Read,NAK
1.067766500000000,134,0x60,0x61,Write,ACK
1.068058500000000,135,0x61,0x00,Read,NAK
1.075653500000000,136,0x68,0x34,Write,ACK
1.075871500000000,137,0x69,0x00,Read,NAK
1.091656500000000,138,0x60,0x06,Write,ACK
1.091874500000000,139,0x61,0x20,Read,NAK
1.109841000000000,140,0x68,0x34,Write,ACK
1.110059000000000,141,0x69,0x00,Read,NAK
1.119614500000000,142,0x60,0x61,Write,ACK
1.119832500000000,143,0x61,0x00,Read,NAK
1.135643000000000,144,0x68,0x34,Write,ACK
1.135861000000000,145,0x69,0x00,Read,NAK
1.159623500000000,146,0x68,0x34,Write,ACK
1.159841500000000,147,0x69,0x00,Read,NAK
1.171646500000000,148,0x60,0x61,Write,ACK
1.171864500000000,149,0x61,0x00,Read,NAK
1.187639500000000,150,0x68,0x34,Write,ACK
1.187857500000000,151,0x69,0x00,Read,NAK
1.211622000000000,152,0x68,0x34,Write,ACK
1.211839500000000,153,0x69,0x00,Read,NAK
1.231740500000000,154,0x60,0x61,Write,ACK
1.232028000000000,155,0x61,0x00,Read,NAK
1.234842000000000,156,0x68,0x34,Write,ACK
1.235210000000000,157,0x69,0x00,Read,NAK
1.256968500000000,158,0x68,0x34,Write,ACK
1.257186500000000,159,0x69,0x00,Read,NAK
1.279615000000000,160,0x68,0x34,Write,ACK
1.279832500000000,161,0x69,0x00,Read,NAK
1.293050000000000,162,0x60,0x61,Write,ACK
1.293267500000000,163,0x61,0x00,Read,NAK
1.299645000000000,164,0x60,0x06,Write,ACK
1.299863000000000,165,0x61,0x20,Read,NAK
1.300491000000000,166,0x68,0x34,Write,ACK
1.300709000000000,167,0x69,0x00,Read,NAK
1.323611500000000,168,0x68,0x34,Write,ACK
1.323829000000000,169,0x69,0x00,Read,NAK
1.347621500000000,170,0x60,0x61,Write,ACK
1.347839500000000,171,0x61,0x00,Read,NAK
1.349883500000000,172,0x68,0x34,Write,ACK
1.350101000000000,173,0x69,0x00,Read,NAK
1.375613500000000,174,0x68,0x34,Write,ACK
1.375831500000000,175,0x69,0x00,Read,NAK
1.407661500000000,176,0x60,0x61,Write,ACK
1.407879500000000,177,0x61,0x00,Read,NAK
1.409779000000000,178,0x68,0x34,Write,ACK
1.409997000000000,179,0x69,0x00,Read,NAK
1.436911000000000,180,0x68,0x34,Write,ACK
1.437129000000000,181,0x69,0x00,Read,NAK
1.463655500000000,182,0x68,0x34,Write,ACK
1.463873000000000,183,0x69,0x00,Read,NAK
1.466343000000000,184,0x60,0x61,Write,ACK
1.466561000000000,185,0x61,0x00,Read,NAK
1.483607500000000,186,0x68,0x34,Write,ACK
1.483825500000000,187,0x69,0x00,Read,NAK
1.511664000000000,188,0x60,0x06,Write,ACK
1.511881500000000,189,0x61,0x20,Read,NAK
1.513015500000000,190,0x68,0x34,Write,ACK
1.513233500000000,191,0x69,0x00,Read,NAK
1.525798500000000,192,0x60,0x61,Write,ACK
1.526016500000000,193,0x61,0x00,Read,NAK
1.539611500000000,194,0x68,0x34,Write,ACK
1.539829500000000,195,0x69,0x00,Read,NAK
1.571659500000000,196,0x68,0x34,Write,ACK
1.571877500000000,197,0x69,0x00,Read,NAK
1.579588500000000,198,0x60,0x61,Write,ACK
1.579806500000000,199,0x61,0x00,Read,NAK
1.604087000000000,200,0x68,0x34,Write,ACK
1.604305000000000,201,0x69,0x00,Read,NAK
1.627649500000000,202,0x68,0x34,Write,ACK
1.627867000000000,203,0x69,0x00,Read,NAK
1.641822500000000,204,0x60,0x61,Write,ACK
1.642040000000000,205,0x61,0x00,Read,NAK
1.651605500000000,206,0x68,0x34,Write,ACK
1.651823500000000,207,0x69,0x00,Read,NAK
1.673040000000000,208,0x68,0x34,Write,ACK
1.673258000000000,209,0x69,0x00,Read,NAK
1.695594500000000,210,0x68,0x34,Write,ACK
1.695812500000000,211,0x69,0x00,Read,NAK
1.716669000000000,212,0x60,0x06,Write,ACK
1.716957000000000,213,0x61,0x20,Read,NAK
1.717590500000000,214,0x60,0x61,Write,ACK
1.717808500000000,215,0x61,0x00,Read,NAK
1.720082500000000,216,0x68,0x34,Write,ACK
1.720300000000000,217,0x69,0x00,Read,NAK
1.745806500000000,218,0x68,0x34,Write,ACK
1.746024500000000,219,0x69,0x00,Read,NAK
1.767631000000000,220,0x68,0x34,Write,ACK
1.767849000000000,221,0x69,0x00,Read,NAK
1.781038000000000,222,0x60,0x61,Write,ACK
1.781256000000000,223,0x61,0x00,Read,NAK
1.791587000000000,224,0x68,0x34,Write,ACK
1.791805000000000,225,0x69,0x00,Read,NAK
1.825487000000000,226,0x68,0x34,Write,ACK
1.825776500000000,227,0x69,0x00,Read,NAK
1.835576000000000,228,0x60,0x61,Write,ACK
1.835794000000000,229,0x61,0x00,Read,NAK
1.864988000000000,230,0x68,0x34,Write,ACK
1.865206000000000,231,0x69,0x00,Read,NAK
1.891594000000000,232,0x68,0x34,Write,ACK
1.891812000000000,233,0x69,0x00,Read,NAK
1.904993000000000,234,0x60,0x61,Write,ACK
1.905211000000000,235,0x61,0x00,Read,NAK
1.915576500000000,236,0x68,0x34,Write,ACK
1.915794000000000,237,0x69,0x00,Read,NAK
1.923605500000000,238,0x60,0x06,Write,ACK
1.923823500000000,239,0x61,0x20,Read,NAK
1.943610000000000,240,0x68,0x34,Write,ACK
1.943828000000000,241,0x69,0x00,Read,NAK
1.959571000000000,242,0x60,0x61,Write,ACK
1.959789000000000,243,0x61,0x00,Read,NAK
1.971580000000000,244,0x68,0x34,Write,ACK
1.971798000000000,245,0x69,0x00,Read,NAK
1.999606000000000,246,0x68,0x34,Write,ACK
1.999824000000000,247,0x69,0x00,Read,NAK
2.016061000000000,248,0x60,0x61,Write,ACK
2.016279000000000,249,0x61,0x00,Read,NAK
2.027576000000000,250,0x68,0x34,Write,ACK
2.027794000000000,251,0x69,0x00,Read,NAK
2.059590000000000,252,0x68,0x34,Write,ACK
2.059808000000000,253,0x69,0x00,Read,NAK
2.071563000000000,254,0x60,0x61,Write,ACK
2.071781000000000,255,0x61,0x00,Read,NAK
2.087614000000000,256,0x68,0x34,Write,ACK
2.087831500000000,257,0x69,0x00,Read,NAK
2.109012500000000,258,0x68,0x34,Write,ACK
2.109230000000000,259,0x69,0x00,Read,NAK
2.124035000000000,260,0x60,0x61,Write,ACK
2.124253000000000,261,0x61,0x00,Read,NAK
2.131588500000000,262,0x60,0x06,Write,ACK
2.131806500000000,263,0x61,0x20,Read,NAK
2.132438500000000,264,0x68,0x34,Write,ACK
2.132656000000000,265,0x69,0x00,Read,NAK
2.155676500000000,266,0x68,0x34,Write,ACK
2.155962500000000,267,0x69,0x00,Read,NAK
2.175555500000000,268,0x60,0x61,Write,ACK
2.175773000000000,269,0x61,0x00,Read,NAK
2.178563000000000,270,0x68,0x34,Write,ACK
2.178781000000000,271,0x69,0x00,Read,NAK
2.203559000000000,272,0x68,0x34,Write,ACK
2.203777000000000,273,0x69,0x00,Read,NAK
2.231563500000000,274,0x68,0x34,Write,ACK
2.231781000000000,275,0x69,0x00,Read,NAK
2.244910500000000,276,0x60,0x61,Write,ACK
2.245128000000000,277,0x61,0x00,Read,NAK
2.259563000000000,278,0x68,0x34,Write,ACK
2.259781000000000,279,0x69,0x00,Read,NAK
2.288957000000000,280,0x68,0x34,Write,ACK
2.289175000000000,281,0x69,0x00,Read,NAK
2.296890500000000,282,0x60,0x61,Write,ACK
2.297108500000000,283,0x61,0x00,Read,NAK
2.311553500000000,284,0x68,0x34,Write,ACK
2.311771500000000,285,0x69,0x00,Read,NAK
2.335584000000000,286,0x60,0x06,Write,ACK
2.335801500000000,287,0x61,0x20,Read,NAK
2.336433500000000,288,0x68,0x34,Write,ACK
2.336651500000000,289,0x69,0x00,Read,NAK
2.351540500000000,290,0x60,0x61,Write,ACK
2.351758500000000,291,0x61,0x00,Read,NAK
2.359551500000000,292,0x68,0x34,Write,ACK
2.359769500000000,293,0x69,0x00,Read,NAK
2.383560000000000,294,0x68,0x7F,Write,ACK
2.383663000000000,294,0x68,0x81,Write,ACK
2.384191000000000,295,0x60,0x73,Write,ACK
2.384291500000000,295,0x60,0x02,Write,ACK
2.384833500000000,296,0x68,0x34,Write,ACK
2.385051500000000,297,0x69,0x00,Read,NAK
2.407544000000000,298,0x60,0x61,Write,ACK
2.407762000000000,299,0x61,0x00,Read,NAK
2.410567500000000,300,0x68,0x34,Write,ACK
2.410785500000000,301,0x69,0x00,Read,NAK
2.435552000000000,302,0x68,0x34,Write,ACK
2.435770000000000,303,0x69,0x00,Read,NAK
2.459544000000000,304,0x68,0x34,Write,ACK
2.459762000000000,305,0x69,0x00,Read,NAK
2.472559000000000,306,0x60,0x61,Write,ACK
2.472849000000000,307,0x61,0x00,Read,NAK
2.483554500000000,308,0x68,0x34,Write,ACK
2.483772500000000,309,0x69,0x00,Read,NAK
2.507590500000000,310,0x68,0x34,Write,ACK
2.507808500000000,311,0x69,0x00,Read,NAK
2.523527500000000,312,0x60,0x61,Write,ACK
2.523745500000000,313,0x61,0x00,Read,NAK
2.535574500000000,314,0x68,0x34,Write,ACK
2.535792500000000,315,0x69,0x00,Read,NAK
2.537726500000000,316,0x60,0x06,Write,ACK
2.537944000000000,317,0x61,0x20,Read,NAK
2.559540500000000,318,0x68,0x34,Write,ACK
2.559758500000000,319,0x69,0x00,Read,NAK
2.579531500000000,320,0x60,0x61,Write,ACK
2.579749000000000,321,0x61,0x00,Read,NAK
2.585405000000000,322,0x68,0x7F,Write,ACK
2.585529500000000,322,0x68,0x83,Write,ACK
2.586135500000000,323,0x60,0x73,Write,ACK
2.586236500000000,323,0x60,0x02,Write,ACK
2.586780500000000,324,0x68,0x34,Write,ACK
2.587138000000000,325,0x69,0x00,Read,NAK
2.613746500000000,326,0x68,0x34,Write,ACK
2.613964500000000,327,0x69,0x00,Read,NAK
2.635531000000000,328,0x68,0x34,Write,ACK
2.635749000000000,329,0x69,0x00,Read,NAK
2.649040000000000,330,0x60,0x61,Write,ACK
2.649258000000000,331,0x61,0x00,Read,NAK
2.659537000000000,332,0x68,0x34,Write,ACK
2.659755000000000,333,0x69,0x00,Read,NAK
2.694464500000000,334,0x68,0x34,Write,ACK
2.694682500000000,335,0x69,0x00,Read,NAK
2.703574000000000,336,0x60,0x61,Write,ACK
2.703792000000000,337,0x61,0x00,Read,NAK
2.719531000000000,338,0x68,0x34,Write,ACK
2.719748500000000,339,0x69,0x00,Read,NAK
2.743559000000000,340,0x60,0x06,Write,ACK
2.743777000000000,341,0x61,0x20,Read,NAK
2.748526500000000,342,0x68,0x34,Write,ACK
2.748812500000000,343,0x69,0x00,Read,NAK
2.760004000000000,344,0x60,0x61,Write,ACK
2.760221500000000,345,0x61,0x00,Read,NAK
2.775528500000000,346,0x68,0x34,Write,ACK
2.775746500000000,347,0x69,0x00,Read,NAK
2.799571000000000,348,0x68,0x34,Write,ACK
2.799789000000000,349,0x69,0x00,Read,NAK
2.812974000000000,350,0x60,0x61,Write,ACK
2.813192000000000,351,0x61,0x00,Read,NAK
2.823523000000000,352,0x68,0x34,Write,ACK
2.823741000000000,353,0x69,0x00,Read,NAK
2.857471000000000,354,0x68,0x34,Write,ACK
2.857754500000000,355,0x69,0x00,Read,NAK
2.867512000000000,356,0x60,0x61,Write,ACK
2.867730000000000,357,0x61,0x00,Read,NAK
2.896924000000000,358,0x68,0x34,Write,ACK
2.897142000000000,359,0x69,0x00,Read,NAK
2.923536000000000,360,0x68,0x34,Write,ACK
2.923754000000000,361,0x69,0x00,Read,NAK
2.936927000000000,362,0x60,0x61,Write,ACK
2.937145000000000,363,0x61,0x00,Read,NAK
2.947544500000000,364,0x60,0x06,Write,ACK
2.947762000000000,365,0x61,0x20,Read,NAK
2.948394000000000,366,0x68,0x34,Write,ACK
2.948612000000000,367,0x69,0x00,Read,NAK
2.981758000000000,368,0x68,0x34,Write,ACK
2.981975500000000,369,0x69,0x00,Read,NAK
2.991503000000000,370,0x60,0x61,Write,ACK
2.991721000000000,371,0x61,0x00,Read,NAK
3.023625000000000,372,0x68,0x34,Write,ACK
3.023911000000000,373,0x69,0x00,Read,NAK
3.047509000000000,374,0x68,0x34,Write,ACK
3.047727000000000,375,0x69,0x00,Read,NAK
3.056022500000000,376,0x60,0x61,Write,ACK
3.056240500000000,377,0x61,0x00,Read,NAK
3.097746000000000,378,0x68,0x34,Write,ACK
3.097963500000000,379,0x69,0x00,Read,NAK
3.121696000000000,380,0x60,0x61,Write,ACK
3.121914000000000,381,0x61,0x00,Read,NAK
3.123212000000000,382,0x68,0x34,Write,ACK
3.123429500000000,383,0x69,0x00,Read,NAK
3.151544000000000,384,0x60,0x06,Write,ACK
3.151762000000000,385,0x61,0x20,Read,NAK
3.154611500000000,386,0x68,0x34,Write,ACK
3.154951500000000,387,0x69,0x00,Read,NAK
3.175494000000000,388,0x60,0x61,Write,ACK
3.175712000000000,389,0x61,0x00,Read,NAK
3.177595500000000,390,0x68,0x34,Write,ACK
3.177813500000000,391,0x69,0x00,Read,NAK
3.209785500000000,392,0x68,0x34,Write,ACK
3.210003500000000,393,0x69,0x00,Read,NAK
3.231496000000000,394,0x68,0x34,Write,ACK
3.231714000000000,395,0x69,0x00,Read,NAK
3.244501000000000,396,0x60,0x61,Write,ACK
3.244785000000000,397,0x61,0x00,Read,NAK
3.255504000000000,398,0x68,0x34,Write,ACK
3.255722000000000,399,0x69,0x00,Read,NAK
3.279496500000000,400,0x68,0x34,Write,ACK
3.279714500000000,401,0x69,0x00,Read,NAK
3.295483500000000,402,0x60,0x61,Write,ACK
3.295701000000000,403,0x61,0x00,Read,NAK
3.307580500000000,404,0x68,0x34,Write,ACK
3.307798000000000,405,0x69,0x00,Read,NAK
3.341698000000000,406,0x68,0x34,Write,ACK
3.341916000000000,407,0x69,0x00,Read,NAK
3.355643000000000,408,0x60,0x06,Write,ACK
3.355931000000000,409,0x61,0x20,Read,NAK
3.356562500000000,410,0x60,0x61,Write,ACK
3.356780500000000,411,0x61,0x00,Read,NAK
3.367494000000000,412,0x68,0x34,Write,ACK
3.367711500000000,413,0x69,0x00,Read,NAK
3.391488000000000,414,0x68,0x34,Write,ACK
3.391706000000000,415,0x69,0x00,Read,NAK
3.415562500000000,416,0x60,0x61,Write,ACK
3.415780500000000,417,0x61,0x00,Read,NAK
3.417782000000000,418,0x68,0x34,Write,ACK
3.418000000000000,419,0x69,0x00,Read,NAK
3.443486500000000,420,0x68,0x34,Write,ACK
3.443704500000000,421,0x69,0x00,Read,NAK
3.471562500000000,422,0x68,0x34,Write,ACK
3.471780500000000,423,0x69,0x00,Read,NAK
3.479964000000000,424,0x60,0x61,Write,ACK
3.480181500000000,425,0x61,0x00,Read,NAK
3.522365000000000,426,0x68,0x34,Write,ACK
3.522583000000000,427,0x69,0x00,Read,NAK
3.531474000000000,428,0x60,0x61,Write,ACK
3.531692000000000,429,0x61,0x00,Read,NAK
3.547481000000000,430,0x68,0x34,Write,ACK
3.547699000000000,431,0x69,0x00,Read,NAK
3.559508000000000,432,0x60,0x06,Write,ACK
3.559726000000000,433,0x61,0x20,Read,NAK
3.575593000000000,434,0x68,0x34,Write,ACK
3.575883000000000,435,0x69,0x00,Read,NAK
3.584796000000000,436,0x60,0x61,Write,ACK
3.585014000000000,437,0x61,0x00,Read,NAK
3.599479000000000,438,0x68,0x34,Write,ACK
3.599697000000000,439,0x69,0x00,Read,NAK
3.623473500000000,440,0x68,0x34,Write,ACK
3.623691500000000,441,0x69,0x00,Read,NAK
3.636926500000000,442,0x60,0x61,Write,ACK
3.637144000000000,443,0x61,0x00,Read,NAK
3.647477500000000,444,0x68,0x34,Write,ACK
3.647695500000000,445,0x69,0x00,Read,NAK
3.673723500000000,446,0x68,0x34,Write,ACK
3.673941500000000,447,0x69,0x00,Read,NAK
3.687490500000000,448,0x60,0x61,Write,ACK
3.687708500000000,449,0x61,0x00,Read,NAK
3.699473500000000,450,0x68,0x34,Write,ACK
3.699691500000000,451,0x69,0x00,Read,NAK
3.732441500000000,452,0x68,0x34,Write,ACK
3.732729500000000,453,0x69,0x00,Read,NAK
3.743944500000000,454,0x60,0x61,Write,ACK
3.744162500000000,455,0x61,0x00,Read,NAK
3.759469500000000,456,0x68,0x34,Write,ACK
3.759687500000000,457,0x69,0x00,Read,NAK
3.767535000000000,458,0x60,0x06,Write,ACK
3.767752500000000,459,0x61,0x20,Read,NAK
3.795487000000000,460,0x60,0x61,Write,ACK
3.795704500000000,461,0x61,0x00,Read,NAK
3.797712500000000,462,0x68,0x34,Write,ACK
3.797930500000000,463,0x69,0x00,Read,NAK
3.819511000000000,464,0x68,0x34,Write,ACK
3.819729000000000,465,0x69,0x00,Read,NAK
3.843577500000000,466,0x68,0x34,Write,ACK
3.843865000000000,467,0x69,0x00,Read,NAK
3.846225000000000,468,0x60,0x61,Write,ACK
3.846443000000000,469,0x61,0x00,Read,NAK
3.888870000000000,470,0x68,0x34,Write,ACK
3.889088000000000,471,0x69,0x00,Read,NAK
3.907465000000000,472,0x60,0x61,Write,ACK
3.907682500000000,473,0x61,0x00,Read,NAK
3.915454000000000,474,0x68,0x34,Write,ACK
3.915672000000000,475,0x69,0x00,Read,NAK
3.939938500000000,476,0x68,0x34,Write,ACK
3.940156500000000,477,0x69,0x00,Read,NAK
3.959479000000000,478,0x60,0x61,Write,ACK
3.959697000000000,479,0x61,0x00,Read,NAK
3.960776500000000,480,0x68,0x34,Write,ACK
3.960994500000000,481,0x69,0x00,Read,NAK
3.975483500000000,482,0x60,0x06,Write,ACK
3.975701500000000,483,0x61,0x20,Read,NAK
3.987450500000000,484,0x68,0x34,Write,ACK
3.987668500000000,485,0x69,0x00,Read,NAK
4.019454500000000,486,0x60,0x61,Write,ACK
4.019672500000000,487,0x61,0x00,Read,NAK
4.021574000000000,488,0x68,0x34,Write,ACK
4.021792000000000,489,0x69,0x00,Read,NAK
4.043440500000000,490,0x68,0x34,Write,ACK
4.043658500000000,491,0x69,0x00,Read,NAK
4.071462500000000,492,0x68,0x34,Write,ACK
4.071680500000000,493,0x69,0x00,Read,NAK
4.083975500000000,494,0x60,0x61,Write,ACK
4.084193500000000,495,0x61,0x00,Read,NAK
4.095445000000000,496,0x68,0x34,Write,ACK
4.095662500000000,497,0x69,0x00,Read,NAK
4.134634000000000,498,0x68,0x34,Write,ACK
4.135006000000000,499,0x69,0x00,Read,NAK
4.136538000000000,500,0x60,0x61,Write,ACK
4.136756000000000,501,0x61,0x00,Read,NAK
4.167552000000000,502,0x68,0x34,Write,ACK
4.167839500000000,503,0x69,0x00,Read,NAK
4.179469000000000,504,0x60,0x06,Write,ACK
4.179686500000000,505,0x61,0x20,Read,NAK
4.195435500000000,506,0x68,0x34,Write,ACK
4.195653500000000,507,0x69,0x00,Read,NAK
4.203909000000000,508,0x60,0x61,Write,ACK
4.204127000000000,509,0x61,0x00,Read,NAK
4.232931000000000,510,0x68,0x34,Write,ACK
4.233149000000000,511,0x69,0x00,Read,NAK
4.255433500000000,512,0x68,0x34,Write,ACK
4.255651000000000,513,0x69,0x00,Read,NAK
4.264832500000000,514,0x60,0x61,Write,ACK
4.265050500000000,515,0x61,0x00,Read,NAK
4.275435500000000,516,0x68,0x34,Write,ACK
4.275653500000000,517,0x69,0x00,Read,NAK
4.299434000000000,518,0x68,0x34,Write,ACK
4.299652000000000,519,0x69,0x00,Read,NAK
4.319424500000000,520,0x60,0x61,Write,ACK
4.319642500000000,521,0x61,0x00,Read,NAK
4.321640000000000,522,0x68,0x34,Write,ACK
4.321858000000000,523,0x69,0x00,Read,NAK
4.351438000000000,524,0x68,0x34,Write,ACK
4.351656000000000,525,0x69,0x00,Read,NAK
4.375426500000000,526,0x68,0x34,Write,ACK
4.375644500000000,527,0x69,0x00,Read,NAK
4.383460000000000,528,0x60,0x06,Write,ACK
4.383677500000000,529,0x61,0x20,Read,NAK
4.389367500000000,530,0x60,0x61,Write,ACK
4.389655000000000,531,0x61,0x00,Read,NAK
4.399434500000000,532,0x68,0x34,Write,ACK
4.399652500000000,533,0x69,0x00,Read,NAK
4.423423000000000,534,0x68,0x34,Write,ACK
4.423640500000000,535,0x69,0x00,Read,NAK
4.439459500000000,536,0x60,0x61,Write,ACK
4.439677500000000,537,0x61,0x00,Read,NAK
4.451458500000000,538,0x68,0x34,Write,ACK
4.451676500000000,539,0x69,0x00,Read,NAK
4.485632500000000,540,0x68,0x34,Write,ACK
4.485850000000000,541,0x69,0x00,Read,NAK
4.499585000000000,542,0x60,0x61,Write,ACK
4.499873000000000,543,0x61,0x00,Read,NAK
4.507444500000000,544,0x68,0x34,Write,ACK
4.507662500000000,545,0x69,0x00,Read,NAK
4.531419000000000,546,0x68,0x34,Write,ACK
4.531636500000000,547,0x69,0x00,Read,NAK
4.551457500000000,548,0x60,0x61,Write,ACK
4.551675500000000,549,0x61,0x00,Read,NAK
4.556373000000000,550,0x68,0x34,Write,ACK
4.556657000000000,551,0x69,0x00,Read,NAK
4.579417500000000,552,0x68,0x34,Write,ACK
4.579635000000000,553,0x69,0x00,Read,NAK
4.591444500000000,554,0x60,0x06,Write,ACK
4.591662000000000,555,0x61,0x20,Read,NAK
4.607409000000000,556,0x60,0x61,Write,ACK
4.607627000000000,557,0x61,0x00,Read,NAK
4.613188500000000,558,0x68,0x7F,Write,ACK
4.613313500000000,558,0x68,0x81,Write,ACK
4.613923500000000,559,0x60,0x73,Write,ACK
4.614026000000000,559,0x60,0x02,Write,ACK
4.614564000000000,560,0x68,0x34,Write,ACK
4.614872000000000,561,0x69,0x00,Read,NAK
4.637638500000000,562,0x68,0x34,Write,ACK
4.637856500000000,563,0x69,0x00,Read,NAK
4.663404500000000,564,0x60,0x61,Write,ACK
4.663622500000000,565,0x61,0x00,Read,NAK
4.669174000000000,566,0x68,0x34,Write,ACK
4.669464000000000,567,0x69,0x00,Read,NAK
4.703931500000000,568,0x68,0x34,Write,ACK
4.704149500000000,569,0x69,0x00,Read,NAK
4.719402500000000,570,0x60,0x61,Write,ACK
4.719620500000000,571,0x61,0x00,Read,NAK
4.735429500000000,572,0x68,0x34,Write,ACK
4.735647000000000,573,0x69,0x00,Read,NAK
4.759453500000000,574,0x68,0x34,Write,ACK
4.759671500000000,575,0x69,0x00,Read,NAK
4.775394500000000,576,0x60,0x61,Write,ACK
4.775612500000000,577,0x61,0x00,Read,NAK
4.787437500000000,578,0x68,0x34,Write,ACK
4.787655500000000,579,0x69,0x00,Read,NAK
4.799434500000000,580,0x60,0x06,Write,ACK
4.799652500000000,581,0x61,0x20,Read,NAK
4.807402000000000,582,0x68,0x34,Write,ACK
4.807619500000000,583,0x69,0x00,Read,NAK
4.831390000000000,584,0x60,0x61,Write,ACK
4.831608000000000,585,0x61,0x00,Read,NAK
4.836315500000000,586,0x68,0x7F,Write,ACK
4.836440500000000,586,0x68,0x83,Write,ACK
4.837048500000000,587,0x60,0x73,Write,ACK
4.837149500000000,587,0x60,0x02,Write,ACK
4.837691000000000,588,0x68,0x34,Write,ACK
4.837909000000000,589,0x69,0x00,Read,NAK
4.859427500000000,590,0x68,0x34,Write,ACK
4.859645500000000,591,0x69,0x00,Read,NAK
4.887389500000000,592,0x60,0x61,Write,ACK
4.887607500000000,593,0x61,0x00,Read,NAK
4.893149000000000,594,0x68,0x34,Write,ACK
4.893437000000000,595,0x69,0x00,Read,NAK
4.919397000000000,596,0x68,0x34,Write,ACK
4.919615000000000,597,0x69,0x00,Read,NAK
4.943397500000000,598,0x68,0x34,Write,ACK
4.943615500000000,599,0x69,0x00,Read,NAK
4.949849000000000,600,0x60,0x61,Write,ACK
4.950067000000000,601,0x61,0x00,Read,NAK
4.977599000000000,602,0x68,0x34,Write,ACK
4.977817000000000,603,0x69,0x00,Read,NAK
4.999391500000000,604,0x68,0x34,Write,ACK
4.999609500000000,605,0x69,0x00,Read,NAK
5.011452500000000,606,0x60,0x06,Write,ACK
5.011670500000000,607,0x61,0x20,Read,NAK
5.012802000000000,608,0x60,0x61,Write,ACK
5.013020000000000,609,0x61,0x00,Read,NAK
5.023389500000000,610,0x68,0x34,Write,ACK
5.023607000000000,611,0x69,0x00,Read,NAK
5.047383500000000,612,0x68,0x34,Write,ACK
5.047601500000000,613,0x69,0x00,Read,NAK
5.071436000000000,614,0x60,0x61,Write,ACK
5.071654000000000,615,0x61,0x00,Read,NAK
5.073559500000000,616,0x68,0x34,Write,ACK
5.073777500000000,617,0x69,0x00,Read,NAK
5.104677500000000,618,0x68,0x34,Write,ACK
5.104895500000000,619,0x69,0x00,Read,NAK
5.123452000000000,620,0x60,0x61,Write,ACK
5.123670000000000,621,0x61,0x00,Read,NAK
5.131381500000000,622,0x68,0x34,Write,ACK
5.131599000000000,623,0x69,0x00,Read,NAK
5.151382000000000,624,0x68,0x34,Write,ACK
5.151600000000000,625,0x69,0x00,Read,NAK
5.183429500000000,626,0x60,0x61,Write,ACK
5.183647500000000,627,0x61,0x00,Read,NAK
5.184729500000000,628,0x68,0x34,Write,ACK
5.184947500000000,629,0x69,0x00,Read,NAK
5.215401500000000,630,0x60,0x06,Write,ACK
5.215619000000000,631,0x61,0x20,Read,NAK
5.217559000000000,632,0x68,0x34,Write,ACK
5.217777000000000,633,0x69,0x00,Read,NAK
5.236807500000000,634,0x60,0x61,Write,ACK
5.237025500000000,635,0x61,0x00,Read,NAK
5.243409000000000,636,0x68,0x34,Write,ACK
5.243627000000000,637,0x69,0x00,Read,NAK
5.273275000000000,638,0x68,0x34,Write,ACK
5.273559000000000,639,0x69,0x00,Read,NAK
5.299847000000000,640,0x60,0x61,Write,ACK
5.300065000000000,641,0x61,0x00,Read,NAK
5.301133000000000,642,0x68,0x34,Write,ACK
5.301350500000000,643,0x69,0x00,Read,NAK
5.331404500000000,644,0x68,0x34,Write,ACK
5.331622500000000,645,0x69,0x00,Read,NAK
5.355361000000000,646,0x60,0x61,Write,ACK
5.355579000000000,647,0x61,0x00,Read,NAK
5.359488500000000,648,0x68,0x34,Write,ACK
5.359706500000000,649,0x69,0x00,Read,NAK
5.393602000000000,650,0x68,0x34,Write,ACK
5.393820000000000,651,0x69,0x00,Read,NAK
5.407359000000000,652,0x60,0x61,Write,ACK
5.407577000000000,653,0x61,0x00,Read,NAK
5.419392000000000,654,0x60,0x06,Write,ACK
5.419610000000000,655,0x61,0x28,Read,NAK
5.420242000000000,656,0x68,0x34,Write,ACK
5.420460000000000,657,0x69,0x00,Read,NAK
5.452689500000000,658,0x68,0x34,Write,ACK
5.452907500000000,659,0x69,0x00,Read,NAK
5.464788500000000,660,0x60,0x61,Write,ACK
5.465006500000000,661,0x61,0x00,Read,NAK
5.491467000000000,662,0x68,0x34,Write,ACK
5.491754500000000,663,0x69,0x00,Read,NAK
5.515357000000000,664,0x68,0x34,Write,ACK
5.515575000000000,665,0x69,0x00,Read,NAK
5.523878500000000,666,0x60,0x61,Write,ACK
5.524096500000000,667,0x61,0x00,Read,NAK
5.539357000000000,668,0x68,0x34,Write,ACK
5.539575000000000,669,0x69,0x00,Read,NAK
5.563363500000000,670,0x68,0x34,Write,ACK
5.563581500000000,671,0x69,0x00,Read,NAK
5.579392500000000,672,0x60,0x61,Write,ACK
5.579610000000000,673,0x61,0x00,Read,NAK
5.587351500000000,674,0x68,0x34,Write,ACK
5.587569500000000,675,0x69,0x00,Read,NAK
5.611352000000000,676,0x68,0x34,Write,ACK
5.611570000000000,677,0x69,0x00,Read,NAK
5.627384500000000,678,0x60,0x06,Write,ACK
5.627602500000000,679,0x61,0x28,Read,NAK
5.635350000000000,680,0x68,0x34,Write,ACK
5.635568000000000,681,0x69,0x00,Read,NAK
5.651459000000000,682,0x60,0x61,Write,ACK
5.651744500000000,683,0x61,0x00,Read,NAK
5.659372000000000,684,0x68,0x34,Write,ACK
5.659590000000000,685,0x69,0x00,Read,NAK
5.691838000000000,686,0x68,0x34,Write,ACK
5.692055500000000,687,0x69,0x00,Read,NAK
5.711380500000000,688,0x68,0x34,Write,ACK
5.711598500000000,689,0x69,0x00,Read,NAK
5.729573000000000,690,0x60,0x61,Write,ACK
5.729791000000000,691,0x61,0x00,Read,NAK
5.735424500000000,692,0x68,0x34,Write,ACK
5.735642500000000,693,0x69,0x00,Read,NAK
5.763376500000000,694,0x68,0x34,Write,ACK
5.763594500000000,695,0x69,0x00,Read,NAK
5.791870500000000,696,0x60,0x61,Write,ACK
5.792088500000000,697,0x61,0x00,Read,NAK
5.793974000000000,698,0x68,0x34,Write,ACK
5.794192000000000,699,0x69,0x00,Read,NAK
5.819372500000000,700,0x68,0x34,Write,ACK
5.819590000000000,701,0x69,0x00,Read,NAK
5.835365000000000,702,0x60,0x06,Write,ACK
5.835583000000000,703,0x61,0x3B,Read,NAK
5.836119000000000,704,0x60,0x08,Write,ACK
5.836336500000000,705,0x61,0x04,Read,NAK
5.836878500000000,706,0x60,0x08,Write,ACK
5.836979500000000,706,0x60,0x05,Write,ACK
5.837521500000000,707,0x60,0x07,Write,ACK
5.837739500000000,708,0x61,0x08,Read,NAK
5.838277000000000,709,0x60,0x07,Write,ACK
5.838378000000000,709,0x60,0x88,Write,ACK
5.839130000000000,710,0x60,0x07,Write,ACK
5.839347500000000,711,0x61,0x88,Read,NAK
5.839887500000000,712,0x60,0x07,Write,ACK
5.839988500000000,712,0x60,0x08,Write,ACK
5.840524500000000,713,0x68,0x37,Write,ACK
5.840742500000000,714,0x69,0x73,Read,NAK
5.841308000000000,715,0x60,0x72,Write,ACK
5.841409000000000,715,0x60,0x08,Write,ACK
5.841939000000000,716,0x60,0x7B,Write,ACK
5.842040000000000,716,0x60,0x18,Write,ACK
5.842855500000000,717,0x60,0xB8,Write,ACK
5.843075500000000,718,0x61,0x01,Read,NAK
5.843619500000000,719,0x60,0xB7,Write,ACK
5.843837500000000,720,0x61,0x07,Read,NAK
5.844399000000000,721,0x60,0x7A,Write,ACK
5.844617000000000,722,0x61,0x6F,Read,NAK
5.845171000000000,723,0x60,0x07,Write,ACK
5.845389000000000,724,0x61,0x08,Read,NAK
5.845928500000000,725,0x60,0x07,Write,ACK
5.846029500000000,725,0x60,0x00,Write,ACK
5.846837500000000,726,0x60,0x70,Write,ACK
5.847057500000000,727,0x61,0x07,Read,NAK
5.847599000000000,728,0x60,0x71,Write,ACK
5.847817000000000,729,0x61,0x38,Read,ACK
5.847922000000000,729,0x61,0x51,Read,ACK
5.848027000000000,729,0x61,0x00,Read,ACK
5.848131500000000,729,0x61,0x00,Read,NAK
5.848669500000000,730,0x60,0x7B,Write,ACK
5.848887500000000,731,0x61,0x85,Read,ACK
5.848992500000000,731,0x61,0x01,Read,NAK
5.849530000000000,732,0x60,0x90,Write,ACK
5.849748000000000,733,0x61,0x6B,Read,ACK
5.849853000000000,733,0x61,0x00,Read,NAK
5.850395000000000,734,0x60,0x71,Write,ACK
5.850495500000000,734,0x60,0x00,Write,ACK
5.850784500000000,734,0x60,0x10,Write,ACK
5.850887500000000,734,0x60,0x00,Write,ACK
5.850988500000000,734,0x60,0x00,Write,ACK
5.851526500000000,735,0x60,0x7B,Write,ACK
5.851627000000000,735,0x60,0x01,Write,ACK
5.851728000000000,735,0x60,0x01,Write,ACK
5.852258000000000,736,0x60,0x90,Write,ACK
5.852359000000000,736,0x60,0x00,Write,ACK
5.852459500000000,736,0x60,0x00,Write,ACK
5.852995500000000,737,0x68,0x2A,Write,ACK
5.853213500000000,738,0x69,0x00,Read,ACK
5.853318500000000,738,0x69,0x00,Read,ACK
5.853423500000000,738,0x69,0x00,Read,NAK
5.853967000000000,739,0x68,0x30,Write,ACK
5.854185000000000,740,0x69,0x01,Read,ACK
5.854290000000000,740,0x69,0x0B,Read,NAK
5.855058000000000,741,0x68,0x17,Write,ACK
5.855275500000000,742,0x69,0x11,Read,NAK
5.855815500000000,743,0x68,0x34,Write,ACK
5.856033500000000,744,0x69,0x00,Read,NAK
5.867324500000000,745,0x60,0x70,Write,ACK
5.867542500000000,746,0x61,0x05,Read,NAK
5.868076500000000,747,0x60,0x71,Write,ACK
5.868294000000000,748,0x61,0x38,Read,ACK
5.868399000000000,748,0x61,0x41,Read,ACK
5.868504000000000,748,0x61,0x00,Read,ACK
5.868609000000000,748,0x61,0x00,Read,NAK
5.869145000000000,749,0x60,0x7B,Write,ACK
5.869362500000000,750,0x61,0x94,Read,ACK
5.869467500000000,750,0x61,0x00,Read,NAK
5.870003500000000,751,0x60,0x90,Write,ACK
5.870221500000000,752,0x61,0x6B,Read,ACK
5.870326000000000,752,0x61,0x00,Read,NAK
5.871102000000000,753,0x60,0x71,Write,ACK
5.871203000000000,753,0x60,0x00,Write,ACK
5.871304000000000,753,0x60,0x00,Write,ACK
5.871404500000000,753,0x60,0x00,Write,ACK
5.871505500000000,753,0x60,0x00,Write,ACK
5.872033500000000,754,0x60,0x7B,Write,ACK
5.872134500000000,754,0x60,0x10,Write,ACK
5.872235500000000,754,0x60,0x00,Write,ACK
5.872767000000000,755,0x60,0x90,Write,ACK
5.872868000000000,755,0x60,0x00,Write,ACK
5.872969000000000,755,0x60,0x00,Write,ACK
5.873531000000000,756,0x60,0x61,Write,ACK
5.873748500000000,757,0x61,0x00,Read,NAK
5.878372500000000,758,0x60,0x70,Write,ACK
5.878846000000000,759,0x61,0x00,Read,NAK
5.879562000000000,760,0x68,0x34,Write,ACK
5.879780000000000,761,0x69,0x00,Read,NAK
5.891365000000000,762,0x60,0x70,Write,ACK
5.891583000000000,763,0x61,0x00,Read,NAK
5.903316000000000,764,0x60,0x70,Write,ACK
5.903534000000000,765,0x61,0x00,Read,NAK
5.904090000000000,766,0x68,0xBF,Write,ACK
5.904191000000000,766,0x68,0x05,Write,ACK
5.904722500000000,767,0x60,0x7A,Write,ACK
5.904940500000000,768,0x61,0x6F,Read,NAK
5.905482500000000,769,0x60,0x73,Write,ACK
5.905583500000000,769,0x60,0x08,Write,ACK
5.906119000000000,770,0x60,0x91,Write,ACK
5.906220000000000,770,0x60,0x08,Write,ACK
5.906980000000000,771,0x60,0x94,Write,ACK
5.907198000000000,772,0x61,0x40,Read,NAK
5.907759500000000,773,0x68,0x7F,Write,ACK
5.907860500000000,773,0x68,0x81,Write,ACK
5.908392500000000,774,0x60,0x73,Write,ACK
5.908493500000000,774,0x60,0x02,Write,ACK
5.909047000000000,775,0x68,0x34,Write,ACK
5.909265000000000,776,0x69,0x00,Read,NAK
5.923318000000000,777,0x60,0x70,Write,ACK
5.923536000000000,778,0x61,0x00,Read,NAK
5.929159500000000,779,0x60,0x61,Write,ACK
5.929447500000000,780,0x61,0x00,Read,NAK
5.931715000000000,781,0x68,0x34,Write,ACK
5.931933000000000,782,0x69,0x00,Read,NAK
5.939314500000000,783,0x60,0x70,Write,ACK
5.939532500000000,784,0x61,0x00,Read,NAK
5.955313500000000,785,0x60,0x70,Write,ACK
5.955531000000000,786,0x61,0x00,Read,NAK
5.956089000000000,787,0x68,0x34,Write,ACK
5.956307000000000,788,0x69,0x00,Read,NAK
5.971312000000000,789,0x60,0x70,Write,ACK
5.971530000000000,790,0x61,0x00,Read,NAK
5.979327000000000,791,0x68,0x34,Write,ACK
5.979545000000000,792,0x69,0x00,Read,NAK
5.991344000000000,793,0x60,0x70,Write,ACK
5.991562000000000,794,0x61,0x00,Read,NAK
5.992646000000000,795,0x60,0x61,Write,ACK
5.992864000000000,796,0x61,0x00,Read,NAK
6.003363000000000,797,0x60,0x70,Write,ACK
6.003581000000000,798,0x61,0x00,Read,NAK
6.004139000000000,799,0x68,0x34,Write,ACK
6.004356500000000,800,0x69,0x00,Read,NAK
6.019311500000000,801,0x60,0x70,Write,ACK
6.019529500000000,802,0x61,0x00,Read,NAK
6.027325000000000,803,0x68,0x34,Write,ACK
6.027543000000000,804,0x69,0x00,Read,NAK
6.035312500000000,805,0x60,0x70,Write,ACK
6.035530000000000,806,0x61,0x00,Read,NAK
6.055369000000000,807,0x60,0x06,Write,ACK
6.055586500000000,808,0x61,0x3B,Read,NAK
6.056250500000000,809,0x60,0x70,Write,ACK
6.056468500000000,810,0x61,0x00,Read,NAK
6.057028500000000,811,0x68,0x34,Write,ACK
6.057246000000000,812,0x69,0x00,Read,NAK
6.067307500000000,813,0x60,0x70,Write,ACK
6.067525500000000,814,0x61,0x00,Read,NAK
6.069505000000000,815,0x60,0x61,Write,ACK
6.069723000000000,816,0x61,0x00,Read,NAK
6.079316500000000,817,0x60,0x70,Write,ACK
6.079534000000000,818,0x61,0x00,Read,NAK
6.080092000000000,819,0x68,0x34,Write,ACK
6.080310000000000,820,0x69,0x00,Read,NAK
6.091307000000000,821,0x60,0x70,Write,ACK
6.091525000000000,822,0x61,0x00,Read,NAK
6.111357500000000,823,0x60,0x06,Write,ACK
6.111575500000000,824,0x61,0x3B,Read,NAK
6.112121500000000,825,0x60,0x08,Write,ACK
6.112339500000000,826,0x61,0x05,Read,NAK
6.112881000000000,827,0x60,0x55,Write,ACK
6.113099000000000,828,0x61,0x03,Read,NAK
6.113639000000000,829,0x60,0x3A,Write,ACK
6.113857000000000,830,0x61,0x98,Read,ACK
6.113961500000000,830,0x61,0x08,Read,ACK
6.114066500000000,830,0x61,0x65,Read,ACK
6.114171500000000,830,0x61,0x04,Read,NAK
6.114953500000000,831,0x60,0x6A,Write,ACK
6.115054000000000,831,0x60,0x01,Write,ACK
6.115592000000000,832,0x60,0x6A,Write,ACK
6.115693000000000,832,0x60,0x00,Write,ACK
6.116225000000000,833,0x60,0x6E,Write,ACK
6.116443000000000,834,0x61,0x74,Read,ACK
6.116547500000000,834,0x61,0x01,Read,NAK
6.117089500000000,835,0x60,0x6A,Write,ACK
6.117192500000000,835,0x60,0x01,Write,ACK
6.117726500000000,836,0x60,0x6A,Write,ACK
6.117829000000000,836,0x60,0x00,Write,ACK
6.118361000000000,837,0x60,0x6E,Write,ACK
6.118767000000000,838,0x61,0x74,Read,ACK
6.118872000000000,838,0x61,0x01,Read,NAK
6.119421500000000,839,0x60,0x6A,Write,ACK
6.119522500000000,839,0x60,0x01,Write,ACK
6.120054500000000,840,0x60,0x6A,Write,ACK
6.120155500000000,840,0x60,0x00,Write,ACK
6.120687000000000,841,0x60,0x6E,Write,ACK
6.120905000000000,842,0x61,0x73,Read,ACK
6.121010000000000,842,0x61,0x01,Read,NAK
6.121554000000000,843,0x60,0x6A,Write,ACK
6.121654500000000,843,0x60,0x01,Write,ACK
6.122190500000000,844,0x60,0x6A,Write,ACK
6.122291500000000,844,0x60,0x00,Write,ACK
6.123055500000000,845,0x60,0x6E,Write,ACK
6.123273000000000,846,0x61,0x74,Read,ACK
6.123378000000000,846,0x61,0x01,Read,NAK
6.123920000000000,847,0x60,0x6A,Write,ACK
6.124021000000000,847,0x60,0x01,Write,ACK
6.124552500000000,848,0x60,0x6A,Write,ACK
6.124653500000000,848,0x60,0x00,Write,ACK
6.125183500000000,849,0x60,0x6E,Write,ACK
6.125401500000000,850,0x61,0x73,Read,ACK
6.125506500000000,850,0x61,0x01,Read,NAK
6.126048000000000,851,0x60,0x6A,Write,ACK
6.126149000000000,851,0x60,0x01,Write,ACK
6.126803000000000,852,0x60,0x6A,Write,ACK
6.126926000000000,852,0x60,0x00,Write,ACK
6.127463500000000,853,0x60,0x6E,Write,ACK
6.127681500000000,854,0x61,0x73,Read,ACK
6.127786500000000,854,0x61,0x01,Read,NAK
6.128326500000000,855,0x60,0x6A,Write,ACK
6.128427000000000,855,0x60,0x01,Write,ACK
6.128957000000000,856,0x60,0x6A,Write,ACK
6.129058000000000,856,0x60,0x00,Write,ACK
6.129588000000000,857,0x60,0x6E,Write,ACK
6.129805500000000,858,0x61,0x73,Read,ACK
6.129910500000000,858,0x61,0x01,Read,NAK
6.130450500000000,859,0x60,0x6A,Write,ACK
6.130551500000000,859,0x60,0x01,Write,ACK
6.131225000000000,860,0x60,0x6A,Write,ACK
6.131326000000000,860,0x60,0x00,Write,ACK
6.131856000000000,861,0x60,0x6E,Write,ACK
6.132074000000000,862,0x61,0x74,Read,ACK
6.132179000000000,862,0x61,0x01,Read,NAK
6.132718500000000,863,0x60,0x6A,Write,ACK
6.132819500000000,863,0x60,0x01,Write,ACK
6.133441500000000,864,0x60,0x6E,Write,ACK
6.133659500000000,865,0x61,0x73,Read,ACK
6.133764000000000,865,0x61,0x01,Read,NAK
6.134298000000000,866,0x60,0x69,Write,ACK
6.134399000000000,866,0x60,0x80,Write,ACK
6.135139000000000,867,0x60,0x6E,Write,ACK
6.135356500000000,868,0x61,0xBA,Read,ACK
6.135461500000000,868,0x61,0x00,Read,NAK
6.135999500000000,869,0x60,0x6E,Write,ACK
6.136217500000000,870,0x61,0xBB,Read,ACK
6.136322000000000,870,0x61,0x00,Read,NAK
6.136860000000000,871,0x60,0x69,Write,ACK
6.136961000000000,871,0x60,0xFF,Write,ACK
6.137583000000000,872,0x60,0x70,Write,ACK
6.137800500000000,873,0x61,0x00,Read,NAK
6.140704500000000,874,0x60,0x70,Write,ACK
6.140922500000000,875,0x61,0x00,Read,NAK
6.141480000000000,876,0x68,0x34,Write,ACK
6.141698000000000,877,0x69,0x00,Read,NAK
6.147377500000000,878,0x60,0x61,Write,ACK
6.147595500000000,879,0x61,0x00,Read,NAK
6.155327000000000,880,0x60,0x70,Write,ACK
6.155545000000000,881,0x61,0x00,Read,NAK
6.167584000000000,882,0x60,0x4B,Write,ACK
6.167685000000000,882,0x60,0x10,Write,ACK
6.167785500000000,882,0x60,0x10,Write,ACK
6.167886500000000,882,0x60,0x10,Write,ACK
6.168440500000000,883,0x60,0x49,Write,ACK
6.168658500000000,884,0x61,0x00,Read,NAK
6.169204000000000,885,0x60,0x48,Write,ACK
6.169305000000000,885,0x60,0x05,Write,ACK
6.169406000000000,885,0x60,0x00,Write,ACK
6.169507000000000,885,0x60,0x20,Write,ACK
6.170041000000000,886,0x60,0x08,Write,ACK
6.170258500000000,887,0x61,0x05,Read,NAK
6.171032500000000,888,0x60,0x08,Write,ACK
6.171133500000000,888,0x60,0x05,Write,ACK
6.171687500000000,889,0x68,0x37,Write,ACK
6.171905000000000,890,0x69,0x73,Read,NAK
6.172443000000000,891,0x68,0x37,Write,ACK
6.172544000000000,891,0x68,0x72,Write,ACK
6.173094000000000,892,0x60,0x6E,Write,ACK
6.173311500000000,893,0x61,0x73,Read,ACK
6.173416500000000,893,0x61,0x01,Read,NAK
6.173954500000000,894,0x60,0x69,Write,ACK
6.174055500000000,894,0x60,0x80,Write,ACK
6.174587000000000,895,0x60,0x6E,Write,ACK
6.174915000000000,896,0x61,0xBA,Read,ACK
6.175020000000000,896,0x61,0x00,Read,NAK
6.175562000000000,897,0x60,0x6E,Write,ACK
6.175779500000000,898,0x61,0xBB,Read,ACK
6.175884500000000,898,0x61,0x00,Read,NAK
6.176424500000000,899,0x60,0x69,Write,ACK
6.176525500000000,899,0x60,0xFF,Write,ACK
6.177147000000000,900,0x60,0x70,Write,ACK
6.177365000000000,901,0x61,0x00,Read,NAK
6.191306000000000,902,0x60,0x70,Write,ACK
6.191524000000000,903,0x61,0x00,Read,NAK
6.194328000000000,904,0x68,0x34,Write,ACK
6.194545500000000,905,0x69,0x00,Read,NAK
6.201039000000000,906,0x60,0x70,Write,ACK
6.201257000000000,907,0x61,0x00,Read,NAK
6.201807000000000,908,0x60,0x61,Write,ACK
6.202025000000000,909,0x61,0x00,Read,NAK
6.215340000000000,910,0x68,0x34,Write,ACK
6.215558000000000,911,0x69,0x00,Read,NAK
6.216101500000000,912,0x60,0x6E,Write,ACK
6.216319500000000,913,0x61,0x73,Read,ACK
6.216424500000000,913,0x61,0x01,Read,NAK
6.216968500000000,914,0x60,0x69,Write,ACK
6.217069000000000,914,0x60,0x80,Write,ACK
6.217603000000000,915,0x60,0x6E,Write,ACK
6.217821000000000,916,0x61,0xBA,Read,ACK
6.217926000000000,916,0x61,0x00,Read,NAK
6.218463500000000,917,0x60,0x6E,Write,ACK
6.218771500000000,918,0x61,0xBB,Read,ACK
6.218876500000000,918,0x61,0x00,Read,NAK
6.219422500000000,919,0x60,0x69,Write,ACK
6.219523000000000,919,0x60,0xFF,Write,ACK
6.220145000000000,920,0x60,0x70,Write,ACK
6.220363000000000,921,0x61,0x00,Read,NAK
6.227294500000000,922,0x60,0x70,Write,ACK
6.227512500000000,923,0x61,0x00,Read,NAK
6.230312000000000,924,0x68,0x34,Write,ACK
6.230530000000000,925,0x69,0x00,Read,NAK
6.231786000000000,926,0x68,0x34,Write,ACK
6.232003500000000,927,0x69,0x00,Read,NAK
6.232543500000000,928,0x60,0x6E,Write,ACK
6.232761500000000,929,0x61,0x73,Read,ACK
6.232866500000000,929,0x61,0x01,Read,NAK
6.233406000000000,930,0x60,0x69,Write,ACK
6.233507000000000,930,0x60,0x80,Write,ACK
6.234039000000000,931,0x60,0x6E,Write,ACK
6.234257000000000,932,0x61,0xBA,Read,ACK
6.234361500000000,932,0x61,0x00,Read,NAK
6.235105500000000,933,0x60,0x6E,Write,ACK
6.235323500000000,934,0x61,0xBB,Read,ACK
6.235428500000000,934,0x61,0x00,Read,NAK
6.235968000000000,935,0x60,0x69,Write,ACK
6.236069000000000,935,0x60,0xFF,Write,ACK
6.247336500000000,936,0x68,0x34,Write,ACK
6.247554000000000,937,0x69,0x00,Read,NAK
6.248092000000000,938,0x60,0x6E,Write,ACK
6.248310000000000,939,0x61,0x73,Read,ACK
6.248415000000000,939,0x61,0x01,Read,NAK
6.248954500000000,940,0x60,0x69,Write,ACK
6.249055500000000,940,0x60,0x80,Write,ACK
6.249589500000000,941,0x60,0x6E,Write,ACK
6.249807500000000,942,0x61,0xBA,Read,ACK
6.249912500000000,942,0x61,0x00,Read,NAK
6.250450000000000,943,0x60,0x6E,Write,ACK
6.250758000000000,944,0x61,0xBB,Read,ACK
6.250863000000000,944,0x61,0x00,Read,NAK
6.251407000000000,945,0x60,0x69,Write,ACK
6.251507500000000,945,0x60,0xFF,Write,ACK
6.252125500000000,946,0x60,0x70,Write,ACK
6.252343500000000,947,0x61,0x00,Read,NAK
6.263366500000000,948,0x68,0x34,Write,ACK
6.263584500000000,949,0x69,0x00,Read,NAK
6.264122500000000,950,0x60,0x6E,Write,ACK
6.264340500000000,951,0x61,0x73,Read,ACK
6.264445000000000,951,0x61,0x01,Read,NAK
6.264985000000000,952,0x60,0x69,Write,ACK
6.265086000000000,952,0x60,0x80,Write,ACK
6.265618000000000,953,0x60,0x6E,Write,ACK
6.265835500000000,954,0x61,0xBB,Read,ACK
6.265940500000000,954,0x61,0x00,Read,NAK
6.266478500000000,955,0x60,0x6E,Write,ACK
6.266872500000000,956,0x61,0xBB,Read,ACK
6.266977000000000,956,0x61,0x00,Read,NAK
6.267519000000000,957,0x60,0x69,Write,ACK
6.267620000000000,957,0x60,0xFF,Write,ACK
6.268238000000000,958,0x60,0x70,Write,ACK
6.268455500000000,959,0x61,0x00,Read,NAK
6.269015500000000,960,0x68,0x34,Write,ACK
6.269233500000000,961,0x69,0x00,Read,NAK
6.272749000000000,962,0x60,0x61,Write,ACK
6.272967000000000,963,0x61,0x00,Read,NAK
6.279338500000000,964,0x68,0x34,Write,ACK
6.279556500000000,965,0x69,0x00,Read,NAK
6.280090500000000,966,0x60,0x6E,Write,ACK
6.280308000000000,967,0x61,0x73,Read,ACK
6.280413000000000,967,0x61,0x01,Read,NAK
6.280953000000000,968,0x60,0x69,Write,ACK
6.281054000000000,968,0x60,0x80,Write,ACK
6.281585500000000,969,0x60,0x6E,Write,ACK
6.281803500000000,970,0x61,0xBB,Read,ACK
6.281908500000000,970,0x61,0x00,Read,NAK
6.282446500000000,971,0x60,0x6E,Write,ACK
6.282758500000000,972,0x61,0xBB,Read,ACK
6.282863000000000,972,0x61,0x00,Read,NAK
6.283407000000000,973,0x60,0x69,Write,ACK
6.283508000000000,973,0x60,0xFF,Write,ACK
6.284126000000000,974,0x60,0x70,Write,ACK
6.284343500000000,975,0x61,0x00,Read,NAK
6.299336500000000,976,0x68,0x34,Write,ACK
6.299554500000000,977,0x69,0x00,Read,NAK
6.300092500000000,978,0x60,0x6E,Write,ACK
6.300310500000000,979,0x61,0x74,Read,ACK
6.300415000000000,979,0x61,0x01,Read,NAK
6.300955000000000,980,0x60,0x69,Write,ACK
6.301056000000000,980,0x60,0x80,Write,ACK
6.301590000000000,981,0x60,0x6E,Write,ACK
6.301807500000000,982,0x61,0xBB,Read,ACK
6.301912500000000,982,0x61,0x00,Read,NAK
6.302450500000000,983,0x60,0x6E,Write,ACK
6.302758500000000,984,0x61,0xBB,Read,ACK
6.302863000000000,984,0x61,0x00,Read,NAK
6.303411000000000,985,0x60,0x69,Write,ACK
6.303512000000000,985,0x60,0xFF,Write,ACK
6.304130000000000,986,0x60,0x70,Write,ACK
6.304347500000000,987,0x61,0x00,Read,NAK
6.327344000000000,988,0x68,0x34,Write,ACK
6.327562000000000,989,0x69,0x00,Read,NAK
6.328102000000000,990,0x60,0x6E,Write,ACK
6.328320000000000,991,0x61,0x74,Read,ACK
6.328425000000000,991,0x61,0x01,Read,NAK
6.328964500000000,992,0x60,0x69,Write,ACK
6.329065500000000,992,0x60,0x80,Write,ACK
6.329597500000000,993,0x60,0x6E,Write,ACK
6.329815500000000,994,0x61,0xBA,Read,ACK
6.329920000000000,994,0x61,0x00,Read,NAK
6.330458000000000,995,0x60,0x6E,Write,ACK
6.330766000000000,996,0x61,0xBB,Read,ACK
6.330871000000000,996,0x61,0x00,Read,NAK
6.331414500000000,997,0x60,0x69,Write,ACK
6.331515500000000,997,0x60,0xFF,Write,ACK
6.332133500000000,998,0x60,0x70,Write,ACK
6.332351500000000,999,0x61,0x00,Read,NAK
6.332901000000000,1000,0x60,0x61,Write,ACK
6.333119000000000,1001,0x61,0x00,Read,NAK
6.334201000000000,1002,0x68,0x34,Write,ACK
6.334419000000000,1003,0x69,0x00,Read,NAK
6.337400500000000,1004,0x60,0x70,Write,ACK
6.337618500000000,1005,0x61,0x00,Read,NAK
6.347333500000000,1006,0x68,0x34,Write,ACK
6.347551500000000,1007,0x69,0x00,Read,NAK
6.348089500000000,1008,0x60,0x6E,Write,ACK
6.348307500000000,1009,0x61,0x73,Read,ACK
6.348412500000000,1009,0x61,0x01,Read,NAK
6.348952000000000,1010,0x60,0x69,Write,ACK
6.349053000000000,1010,0x60,0x80,Write,ACK
6.349587000000000,1011,0x60,0x6E,Write,ACK
6.349805000000000,1012,0x61,0xBA,Read,ACK
6.349909500000000,1012,0x61,0x00,Read,NAK
6.350447500000000,1013,0x60,0x6E,Write,ACK
6.350755500000000,1014,0x61,0xBB,Read,ACK
6.350860500000000,1014,0x61,0x00,Read,NAK
6.351408000000000,1015,0x60,0x69,Write,ACK
6.351509000000000,1015,0x60,0xFF,Write,ACK
6.352129000000000,1016,0x60,0x70,Write,ACK
6.352347000000000,1017,0x61,0x00,Read,NAK
6.359292500000000,1018,0x60,0x70,Write,ACK
6.359510000000000,1019,0x61,0x00,Read,NAK
6.360070000000000,1020,0x68,0x34,Write,ACK
6.360288000000000,1021,0x69,0x00,Read,NAK
6.375345000000000,1022,0x68,0x34,Write,ACK
6.375563000000000,1023,0x69,0x00,Read,NAK
6.376104500000000,1024,0x60,0x6E,Write,ACK
6.376322500000000,1025,0x61,0x73,Read,ACK
6.376427500000000,1025,0x61,0x01,Read,NAK
6.376969500000000,1026,0x60,0x69,Write,ACK
6.377070000000000,1026,0x60,0x80,Write,ACK
6.377602000000000,1027,0x60,0x6E,Write,ACK
6.377820000000000,1028,0x61,0xBA,Read,ACK
6.377925000000000,1028,0x61,0x00,Read,NAK
6.378464500000000,1029,0x60,0x6E,Write,ACK
6.378868500000000,1030,0x61,0xBA,Read,ACK
6.378973500000000,1030,0x61,0x00,Read,NAK
6.379517500000000,1031,0x60,0x69,Write,ACK
6.379618000000000,1031,0x60,0xFF,Write,ACK
6.380240000000000,1032,0x60,0x70,Write,ACK
6.380458000000000,1033,0x61,0x00,Read,NAK
6.387287500000000,1034,0x60,0x70,Write,ACK
6.387505500000000,1035,0x61,0x00,Read,NAK
6.388051000000000,1036,0x60,0x61,Write,ACK
6.388269000000000,1037,0x61,0x00,Read,NAK
6.390167000000000,1038,0x68,0x34,Write,ACK
6.390385000000000,1039,0x69,0x00,Read,NAK
6.395364500000000,1040,0x68,0x34,Write,ACK
6.395582500000000,1041,0x69,0x00,Read,NAK
6.396120000000000,1042,0x60,0x6E,Write,ACK
6.396338000000000,1043,0x61,0x74,Read,ACK
6.396443000000000,1043,0x61,0x01,Read,NAK
6.396985000000000,1044,0x60,0x69,Write,ACK
6.397085500000000,1044,0x60,0x80,Write,ACK
6.397617500000000,1045,0x60,0x6E,Write,ACK
6.397835500000000,1046,0x61,0xBA,Read,ACK
6.397940500000000,1046,0x61,0x00,Read,NAK
6.398478000000000,1047,0x60,0x6E,Write,ACK
6.398870000000000,1048,0x61,0xBB,Read,ACK
6.398975000000000,1048,0x61,0x00,Read,NAK
6.399519000000000,1049,0x60,0x69,Write,ACK
6.399619500000000,1049,0x60,0xFF,Write,ACK
6.407289000000000,1050,0x60,0x70,Write,ACK
6.407507000000000,1051,0x61,0x00,Read,NAK
6.419328000000000,1052,0x68,0x34,Write,ACK
6.419546000000000,1053,0x69,0x00,Read,NAK
6.420086000000000,1054,0x60,0x6E,Write,ACK
