Time [s],Packet ID,Address,Data,Read/Write,ACK/NAK
0.003167000000000,0,0x60,0x70,Write,ACK
0.003385000000000,1,0x61,0x00,Read,NAK
0.008936000000000,2,0x68,0x34,Write,ACK
0.009216000000000,3,0x69,0x00,Read,NAK
0.019262000000000,4,0x60,0x70,Write,ACK
0.019479000000000,5,0x61,0x00,Read,NAK
0.020561000000000,6,0x60,0x61,Write,ACK
0.020779000000000,7,0x61,0x00,Read,NAK
0.035172000000000,8,0x60,0x70,Write,ACK
0.035390000000000,9,0x61,0x00,Read,NAK
0.035958000000000,10,0x68,0x34,Write,ACK
0.036176000000000,11,0x69,0x00,Read,NAK
0.051261000000000,12,0x60,0x70,Write,ACK
0.051479000000000,13,0x61,0x00,Read,NAK
0.059177000000000,14,0x68,0x34,Write,ACK
0.059395000000000,15,0x69,0x00,Read,NAK
0.064074000000000,16,0x60,0x70,Write,ACK
0.064356000000000,17,0x61,0x00,Read,NAK
0.071182000000000,18,0x60,0x61,Write,ACK
0.071400000000000,19,0x61,0x00,Read,NAK
0.079159000000000,20,0x60,0x70,Write,ACK
0.079377000000000,21,0x61,0x00,Read,NAK
0.079945000000000,22,0x68,0x34,Write,ACK
0.080163000000000,23,0x69,0x00,Read,NAK
0.095158000000000,24,0x60,0x70,Write,ACK
0.095376000000000,25,0x61,0x00,Read,NAK
0.103171000000000,26,0x68,0x34,Write,ACK
0.103389000000000,27,0x69,0x00,Read,NAK
0.105367000000000,28,0x60,0x70,Write,ACK
0.105585000000000,29,0x61,0x00,Read,NAK
0.115160000000000,30,0x60,0x70,Write,ACK
0.115378000000000,31,0x61,0x00,Read,NAK
0.127288000000000,32,0x60,0x70,Write,ACK
0.127505000000000,33,0x61,0x00,Read,NAK
0.128065000000000,34,0x68,0x34,Write,ACK
0.128283000000000,35,0x69,0x00,Read,NAK
0.143158000000000,36,0x60,0x70,Write,ACK
0.143376000000000,37,0x61,0x00,Read,NAK
0.145382000000000,38,0x60,0x61,Write,ACK
0.145600000000000,39,0x61,0x00,Read,NAK
0.155163000000000,40,0x60,0x70,Write,ACK
0.155381000000000,41,0x61,0x00,Read,NAK
0.155945000000000,42,0x68,0x34,Write,ACK
0.156163000000000,43,0x69,0x00,Read,NAK
0.171160000000000,44,0x60,0x70,Write,ACK
0.171378000000000,45,0x61,0x00,Read,NAK
0.187171000000000,46,0x60,0x70,Write,ACK
0.187389000000000,47,0x61,0x00,Read,NAK
0.187955000000000,48,0x68,0x34,Write,ACK
0.188173000000000,49,0x69,0x00,Read,NAK
0.199198000000000,50,0x60,0x6E,Write,ACK
0.199416000000000,51,0x61,0xD0,Read,ACK
0.199519000000000,51,0x61,0x01,Read,NAK
0.200061000000000,52,0x60,0x69,Write,ACK
0.200164000000000,52,0x60,0x80,Write,ACK
0.200706000000000,53,0x60,0x6E,Write,ACK
0.200924000000000,54,0x61,0xD0,Read,ACK
0.201027000000000,54,0x61,0x01,Read,NAK
0.201568000000000,55,0x60,0x6E,Write,ACK
0.201786000000000,56,0x61,0xD0,Read,ACK
0.201889000000000,56,0x61,0x01,Read,NAK
0.202627000000000,57,0x60,0x69,Write,ACK
0.202732000000000,57,0x60,0xFF,Write,ACK
0.203286000000000,58,0x64,0x87,Write,ACK
0.203389000000000,58,0x64,0x03,Write,ACK
0.203927000000000,59,0x64,0x81,Write,ACK
0.204029000000000,59,0x64,0x10,Write,ACK
0.204567000000000,60,0x64,0x88,Write,ACK
0.204670000000000,60,0x64,0x40,Write,ACK
0.205208000000000,61,0x64,0x87,Write,ACK
0.205311000000000,61,0x64,0x43,Write,ACK
0.205849000000000,62,0x64,0x81,Write,ACK
0.205952000000000,62,0x64,0x18,Write,ACK
0.206696000000000,63,0x60,0x61,Write,ACK
0.206918000000000,64,0x61,0x00,Read,NAK
0.207577000000000,65,0x60,0x70,Write,ACK
0.207795000000000,66,0x61,0x03,Read,NAK
0.208337000000000,67,0x60,0x71,Write,ACK
0.208555000000000,68,0x61,0x38,Read,ACK
0.208658000000000,68,0x61,0x49,Read,ACK
0.208761000000000,68,0x61,0x00,Read,ACK
0.208864000000000,68,0x61,0x00,Read,NAK
0.209406000000000,69,0x60,0x7B,Write,ACK
0.209623000000000,70,0x61,0x84,Read,ACK
0.209726000000000,70,0x61,0x00,Read,NAK
0.210268000000000,71,0x60,0x90,Write,ACK
0.210602000000000,72,0x61,0x6B,Read,ACK
0.210707000000000,72,0x61,0x00,Read,NAK
0.211261000000000,73,0x60,0x71,Write,ACK
0.211364000000000,73,0x60,0x00,Write,ACK
0.211467000000000,73,0x60,0x08,Write,ACK
0.211570000000000,73,0x60,0x00,Write,ACK
0.211670000000000,73,0x60,0x00,Write,ACK
0.212206000000000,74,0x60,0x7B,Write,ACK
0.212309000000000,74,0x60,0x00,Write,ACK
0.212412000000000,74,0x60,0x00,Write,ACK
0.212950000000000,75,0x60,0x90,Write,ACK
0.213053000000000,75,0x60,0x00,Write,ACK
0.213156000000000,75,0x60,0x00,Write,ACK
0.213702000000000,76,0x60,0x07,Write,ACK
0.213920000000000,77,0x61,0x00,Read,NAK
0.214651000000000,78,0x60,0x07,Write,ACK
0.214756000000000,78,0x60,0x80,Write,ACK
0.215304000000000,79,0x60,0x07,Write,ACK
0.215522000000000,80,0x61,0x80,Read,NAK
0.216064000000000,81,0x60,0x07,Write,ACK
0.216167000000000,81,0x60,0x00,Write,ACK
0.216713000000000,82,0x60,0x76,Write,ACK
0.216816000000000,82,0x60,0x98,Write,ACK
0.217356000000000,83,0x60,0x78,Write,ACK
0.217458000000000,83,0x60,0x40,Write,ACK
0.217998000000000,84,0x60,0xBB,Write,ACK
0.218101000000000,84,0x60,0x01,Write,ACK
0.218879000000000,85,0x68,0x37,Write,ACK
0.219097000000000,86,0x69,0x73,Read,NAK
0.220463000000000,87,0x60,0x2E,Write,ACK
0.220566000000000,87,0x60,0xC0,Write,ACK
0.221112000000000,88,0x68,0x34,Write,ACK
0.221329000000000,89,0x69,0x00,Read,NAK
0.221943000000000,90,0x60,0xB8,Write,ACK
0.222161000000000,91,0x61,0x01,Read,NAK
0.222945000000000,92,0x60,0xB7,Write,ACK
0.223163000000000,93,0x61,0x07,Read,NAK
0.225075000000000,94,0x60,0x7A,Write,ACK
0.225293000000000,95,0x61,0x6F,Read,NAK
0.225853000000000,96,0x60,0x7A,Write,ACK
0.226070000000000,97,0x61,0x6F,Read,NAK
0.226862000000000,98,0x68,0x37,Write,ACK
0.227080000000000,99,0x69,0x73,Read,NAK
0.227634000000000,100,0x60,0x61,Write,ACK
0.227852000000000,101,0x61,0x00,Read,NAK
0.228404000000000,102,0x68,0x37,Write,ACK
0.228622000000000,103,0x69,0x73,Read,NAK
0.229182000000000,104,0x60,0x61,Write,ACK
0.229399000000000,105,0x61,0x00,Read,NAK
0.259204000000000,106,0x60,0x70,Write,ACK
0.259422000000000,107,0x61,0x00,Read,NAK
0.259982000000000,108,0x68,0x34,Write,ACK
0.260200000000000,109,0x69,0x00,Read,NAK
0.445476000000000,110,0x60,0x70,Write,ACK
0.445694000000000,111,0x61,0x00,Read,NAK
0.446248000000000,112,0x60,0x61,Write,ACK
0.446578000000000,113,0x61,0x00,Read,NAK
0.636281000000000,114,0x60,0x06,Write,ACK
0.636499000000000,115,0x61,0x2B,Read,NAK
0.637179000000000,116,0x60,0x70,Write,ACK
0.637396000000000,117,0x61,0x00,Read,NAK
0.637958000000000,118,0x68,0xBF,Write,ACK
0.638061000000000,118,0x68,0x05,Write,ACK
0.638851000000000,119,0x60,0x7A,Write,ACK
0.639069000000000,120,0x61,0x6F,Read,NAK
0.639613000000000,121,0x60,0x73,Write,ACK
0.639716000000000,121,0x60,0x08,Write,ACK
0.640258000000000,122,0x60,0x91,Write,ACK
0.640361000000000,122,0x60,0x08,Write,ACK
0.640898000000000,123,0x60,0x94,Write,ACK
0.641116000000000,124,0x61,0x40,Read,NAK
0.643148000000000,125,0x68,0x7F,Write,ACK
0.643251000000000,125,0x68,0x81,Write,ACK
0.643787000000000,126,0x60,0x73,Write,ACK
0.643890000000000,126,0x60,0x02,Write,ACK
0.654149000000000,127,0x68,0x34,Write,ACK
0.654367000000000,128,0x69,0x00,Read,NAK
0.671906000000000,129,0x60,0x70,Write,ACK
0.672124000000000,130,0x61,0x00,Read,NAK
0.674030000000000,131,0x60,0x61,Write,ACK
0.674248000000000,132,0x61,0x00,Read,NAK
0.675536000000000,133,0x68,0x34,Write,ACK
0.675753000000000,134,0x69,0x00,Read,NAK
0.687173000000000,135,0x60,0x06,Write,ACK
0.687391000000000,136,0x61,0x2B,Read,NAK
0.687943000000000,137,0x60,0x08,Write,ACK
0.688160000000000,138,0x61,0x05,Read,NAK
0.688696000000000,139,0x60,0x55,Write,ACK
0.688914000000000,140,0x61,0x00,Read,NAK
0.689454000000000,141,0x60,0x3A,Write,ACK
0.689672000000000,142,0x61,0x00,Read,ACK
0.689775000000000,142,0x61,0x00,Read,ACK
0.689878000000000,142,0x61,0x00,Read,ACK
0.689981000000000,142,0x61,0x00,Read,NAK
0.690776000000000,143,0x60,0x6A,Write,ACK
0.690879000000000,143,0x60,0x01,Write,ACK
0.691419000000000,144,0x60,0x6A,Write,ACK
0.691522000000000,144,0x60,0x00,Write,ACK
0.692060000000000,145,0x60,0x6E,Write,ACK
0.692278000000000,146,0x61,0xD0,Read,ACK
0.692381000000000,146,0x61,0x01,Read,NAK
0.692925000000000,147,0x60,0x6A,Write,ACK
0.693028000000000,147,0x60,0x01,Write,ACK
0.693565000000000,148,0x60,0x6A,Write,ACK
0.693668000000000,148,0x60,0x00,Write,ACK
0.694206000000000,149,0x60,0x6E,Write,ACK
0.694580000000000,150,0x61,0xD0,Read,ACK
0.694685000000000,150,0x61,0x01,Read,NAK
0.695239000000000,151,0x60,0x6A,Write,ACK
0.695342000000000,151,0x60,0x01,Write,ACK
0.695878000000000,152,0x60,0x6A,Write,ACK
0.695981000000000,152,0x60,0x00,Write,ACK
0.696520000000000,153,0x60,0x6E,Write,ACK
0.696738000000000,154,0x61,0xD0,Read,ACK
0.696841000000000,154,0x61,0x01,Read,NAK
0.697381000000000,155,0x60,0x6A,Write,ACK
0.697484000000000,155,0x60,0x01,Write,ACK
0.698024000000000,156,0x60,0x6A,Write,ACK
0.698127000000000,156,0x60,0x00,Write,ACK
0.698907000000000,157,0x60,0x6E,Write,ACK
0.699124000000000,158,0x61,0xD0,Read,ACK
0.699227000000000,158,0x61,0x01,Read,NAK
0.699769000000000,159,0x60,0x6A,Write,ACK
0.699870000000000,159,0x60,0x01,Write,ACK
0.700410000000000,160,0x60,0x6A,Write,ACK
0.700513000000000,160,0x60,0x00,Write,ACK
0.701049000000000,161,0x60,0x6E,Write,ACK
0.701267000000000,162,0x61,0xD0,Read,ACK
0.701370000000000,162,0x61,0x01,Read,NAK
0.701913000000000,163,0x60,0x6A,Write,ACK
0.702016000000000,163,0x60,0x01,Write,ACK
0.702798000000000,164,0x60,0x6A,Write,ACK
0.702901000000000,164,0x60,0x00,Write,ACK
0.703437000000000,165,0x60,0x6E,Write,ACK
0.703655000000000,166,0x61,0xD0,Read,ACK
0.703758000000000,166,0x61,0x01,Read,NAK
0.704300000000000,167,0x60,0x6A,Write,ACK
0.704403000000000,167,0x60,0x01,Write,ACK
0.704940000000000,168,0x60,0x6A,Write,ACK
0.705043000000000,168,0x60,0x00,Write,ACK
0.705583000000000,169,0x60,0x6E,Write,ACK
0.705801000000000,170,0x61,0xD0,Read,ACK
0.705904000000000,170,0x61,0x01,Read,NAK
0.706642000000000,171,0x60,0x6A,Write,ACK
0.706747000000000,171,0x60,0x01,Write,ACK
0.707291000000000,172,0x60,0x6A,Write,ACK
0.707393000000000,172,0x60,0x00,Write,ACK
0.707929000000000,173,0x60,0x6E,Write,ACK
0.708147000000000,174,0x61,0xD0,Read,ACK
0.708250000000000,174,0x61,0x01,Read,NAK
0.708794000000000,175,0x60,0x6A,Write,ACK
0.708897000000000,175,0x60,0x01,Write,ACK
0.709503000000000,176,0x68,0x37,Write,ACK
0.709721000000000,177,0x69,0x73,Read,NAK
0.710275000000000,178,0x68,0x37,Write,ACK
0.710590000000000,179,0x69,0x73,Read,NAK
0.711140000000000,180,0x68,0x29,Write,ACK
0.711243000000000,180,0x68,0x14,Write,ACK
0.711791000000000,181,0x68,0x27,Write,ACK
0.712009000000000,182,0x69,0x01,Read,NAK
0.712679000000000,183,0x60,0x70,Write,ACK
0.712897000000000,184,0x61,0x00,Read,NAK
0.739183000000000,185,0x60,0x70,Write,ACK
0.739401000000000,186,0x61,0x00,Read,NAK
0.739953000000000,187,0x60,0x61,Write,ACK
0.740171000000000,188,0x61,0x00,Read,NAK
0.747367000000000,189,0x68,0x34,Write,ACK
0.747584000000000,190,0x69,0x00,Read,NAK
0.749470000000000,191,0x60,0x70,Write,ACK
0.749688000000000,192,0x61,0x00,Read,NAK
0.763129000000000,193,0x60,0x70,Write,ACK
0.763347000000000,194,0x61,0x00,Read,NAK
0.771139000000000,195,0x68,0x34,Write,ACK
0.771357000000000,196,0x69,0x00,Read,NAK
0.779222000000000,197,0x60,0x70,Write,ACK
0.779440000000000,198,0x61,0x00,Read,NAK
0.795125000000000,199,0x60,0x70,Write,ACK
0.795343000000000,200,0x61,0x00,Read,NAK
0.795893000000000,201,0x60,0x61,Write,ACK
0.796111000000000,202,0x61,0x00,Read,NAK
0.801614000000000,203,0x68,0x34,Write,ACK
0.801896000000000,204,0x69,0x00,Read,NAK
0.811224000000000,205,0x60,0x70,Write,ACK
0.811442000000000,206,0x61,0x00,Read,NAK
0.823125000000000,207,0x60,0x70,Write,ACK
0.823343000000000,208,0x61,0x00,Read,NAK
0.825233000000000,209,0x68,0x34,Write,ACK
0.825451000000000,210,0x69,0x00,Read,NAK
0.835122000000000,211,0x60,0x70,Write,ACK
0.835340000000000,212,0x61,0x00,Read,NAK
0.851125000000000,213,0x60,0x70,Write,ACK
0.851343000000000,214,0x61,0x00,Read,NAK
0.851903000000000,215,0x68,0x34,Write,ACK
0.852121000000000,216,0x69,0x00,Read,NAK
0.858194000000000,217,0x60,0x61,Write,ACK
0.858674000000000,218,0x61,0x00,Read,NAK
0.867126000000000,219,0x60,0x70,Write,ACK
0.867344000000000,220,0x61,0x00,Read,NAK
0.879217000000000,221,0x60,0x70,Write,ACK
0.879435000000000,222,0x61,0x00,Read,NAK
0.895120000000000,223,0x60,0x70,Write,ACK
0.895338000000000,224,0x61,0x00,Read,NAK
0.896418000000000,225,0x68,0x34,Write,ACK
0.896636000000000,226,0x69,0x00,Read,NAK
0.907123000000000,227,0x60,0x70,Write,ACK
0.907341000000000,228,0x61,0x00,Read,NAK
0.919246000000000,229,0x60,0x70,Write,ACK
0.919464000000000,230,0x61,0x00,Read,NAK
0.920028000000000,231,0x68,0x34,Write,ACK
0.920246000000000,232,0x69,0x00,Read,NAK
0.935119000000000,233,0x60,0x70,Write,ACK
0.935337000000000,234,0x61,0x00,Read,NAK
0.937339000000000,235,0x60,0x61,Write,ACK
0.937557000000000,236,0x61,0x00,Read,NAK
0.947124000000000,237,0x60,0x70,Write,ACK
0.947342000000000,238,0x61,0x00,Read,NAK
0.947908000000000,239,0x68,0x34,Write,ACK
0.948126000000000,240,0x69,0x00,Read,NAK
0.959213000000000,241,0x60,0x70,Write,ACK
0.959431000000000,242,0x61,0x00,Read,NAK
0.979134000000000,243,0x60,0x70,Write,ACK
0.979352000000000,244,0x61,0x00,Read,NAK
0.981368000000000,245,0x68,0x34,Write,ACK
0.981586000000000,246,0x69,0x00,Read,NAK
0.991211000000000,247,0x60,0x70,Write,ACK
0.991429000000000,248,0x61,0x00,Read,NAK
0.991979000000000,249,0x60,0x61,Write,ACK
0.992197000000000,250,0x61,0x00,Read,NAK
1.007116000000000,251,0x60,0x70,Write,ACK
1.007334000000000,252,0x61,0x00,Read,NAK
1.007898000000000,253,0x68,0x34,Write,ACK
1.008115000000000,254,0x69,0x00,Read,NAK
1.027242000000000,255,0x60,0x70,Write,ACK
1.027460000000000,256,0x61,0x00,Read,NAK
1.028548000000000,257,0x68,0x34,Write,ACK
1.028766000000000,258,0x69,0x00,Read,NAK
1.043115000000000,259,0x60,0x70,Write,ACK
1.043333000000000,260,0x61,0x00,Read,NAK
1.045331000000000,261,0x60,0x61,Write,ACK
1.045549000000000,262,0x61,0x00,Read,NAK
1.055116000000000,263,0x60,0x70,Write,ACK
1.055334000000000,264,0x61,0x00,Read,NAK
1.055900000000000,265,0x68,0x34,Write,ACK
1.056118000000000,266,0x69,0x00,Read,NAK
1.071119000000000,267,0x60,0x70,Write,ACK
1.071337000000000,268,0x61,0x00,Read,NAK
1.087124000000000,269,0x60,0x70,Write,ACK
1.087342000000000,270,0x61,0x00,Read,NAK
1.087910000000000,271,0x68,0x34,Write,ACK
1.088128000000000,272,0x69,0x00,Read,NAK
1.096531000000000,273,0x60,0x61,Write,ACK
1.096749000000000,274,0x61,0x00,Read,NAK
1.103139000000000,275,0x60,0x70,Write,ACK
1.103357000000000,276,0x61,0x00,Read,NAK
1.119110000000000,277,0x60,0x70,Write,ACK
1.119328000000000,278,0x61,0x00,Read,NAK
1.132243000000000,279,0x60,0x70,Write,ACK
1.132527000000000,280,0x61,0x00,Read,NAK
1.133099000000000,281,0x68,0x34,Write,ACK
1.133317000000000,282,0x69,0x00,Read,NAK
1.147114000000000,283,0x60,0x70,Write,ACK
1.147332000000000,284,0x61,0x00,Read,NAK
1.147882000000000,285,0x60,0x61,Write,ACK
1.148099000000000,286,0x61,0x00,Read,NAK
1.159211000000000,287,0x60,0x70,Write,ACK
1.159429000000000,288,0x61,0x00,Read,NAK
1.159993000000000,289,0x68,0x34,Write,ACK
1.160210000000000,290,0x69,0x00,Read,NAK
1.175110000000000,291,0x60,0x70,Write,ACK
1.175328000000000,292,0x61,0x00,Read,NAK
1.188025000000000,293,0x60,0x70,Write,ACK
1.188307000000000,294,0x61,0x00,Read,NAK
1.188881000000000,295,0x68,0x34,Write,ACK
1.189098000000000,296,0x69,0x00,Read,NAK
1.199204000000000,297,0x60,0x70,Write,ACK
1.199422000000000,298,0x61,0x00,Read,NAK
1.200492000000000,299,0x60,0x61,Write,ACK
1.200710000000000,300,0x61,0x00,Read,NAK
1.215111000000000,301,0x60,0x70,Write,ACK
1.215329000000000,302,0x61,0x00,Read,NAK
1.215893000000000,303,0x68,0x34,Write,ACK
1.216110000000000,304,0x69,0x00,Read,NAK
1.231204000000000,305,0x60,0x70,Write,ACK
1.231421000000000,306,0x61,0x00,Read,NAK
1.239119000000000,307,0x68,0x34,Write,ACK
1.239337000000000,308,0x69,0x00,Read,NAK
1.251138000000000,309,0x60,0x70,Write,ACK
1.251356000000000,310,0x61,0x00,Read,NAK
1.253366000000000,311,0x60,0x61,Write,ACK
1.253584000000000,312,0x61,0x00,Read,NAK
1.263205000000000,313,0x60,0x70,Write,ACK
1.263423000000000,314,0x61,0x00,Read,NAK
1.263987000000000,315,0x68,0x34,Write,ACK
1.264205000000000,316,0x69,0x00,Read,NAK
1.283110000000000,317,0x60,0x70,Write,ACK
1.283328000000000,318,0x61,0x00,Read,NAK
1.296999000000000,319,0x60,0x6E,Write,ACK
1.297281000000000,320,0x61,0xD0,Read,ACK
1.297384000000000,320,0x61,0x01,Read,NAK
1.297936000000000,321,0x60,0x69,Write,ACK
1.298039000000000,321,0x60,0x80,Write,ACK
1.299042000000000,322,0x60,0x6E,Write,ACK
1.299260000000000,323,0x61,0xD0,Read,ACK
1.299363000000000,323,0x61,0x01,Read,NAK
1.299905000000000,324,0x60,0x6E,Write,ACK
1.300123000000000,325,0x61,0xD0,Read,ACK
1.300226000000000,325,0x61,0x01,Read,NAK
1.300770000000000,326,0x60,0x69,Write,ACK
1.300873000000000,326,0x60,0xFF,Write,ACK
1.301422000000000,327,0x64,0x87,Write,ACK
1.301525000000000,327,0x64,0x03,Write,ACK
1.302061000000000,328,0x64,0x81,Write,ACK
1.302164000000000,328,0x64,0x10,Write,ACK
1.302920000000000,329,0x64,0x88,Write,ACK
1.303023000000000,329,0x64,0x40,Write,ACK
1.303563000000000,330,0x64,0x87,Write,ACK
1.303666000000000,330,0x64,0x43,Write,ACK
1.304206000000000,331,0x64,0x81,Write,ACK
1.304308000000000,331,0x64,0x18,Write,ACK
1.304860000000000,332,0x60,0x61,Write,ACK
1.305078000000000,333,0x61,0x00,Read,NAK
1.305740000000000,334,0x60,0x70,Write,ACK
1.305958000000000,335,0x61,0x03,Read,NAK
1.306736000000000,336,0x60,0x71,Write,ACK
1.306954000000000,337,0x61,0x38,Read,ACK
1.307057000000000,337,0x61,0x49,Read,ACK
1.307159000000000,337,0x61,0x00,Read,ACK
1.307262000000000,337,0x61,0x00,Read,NAK
1.307810000000000,338,0x60,0x7B,Write,ACK
1.308028000000000,339,0x61,0x84,Read,ACK
1.308131000000000,339,0x61,0x00,Read,NAK
1.308675000000000,340,0x60,0x90,Write,ACK
1.308893000000000,341,0x61,0x6B,Read,ACK
1.308996000000000,341,0x61,0x00,Read,NAK
1.309540000000000,342,0x60,0x71,Write,ACK
1.309642000000000,342,0x60,0x00,Write,ACK
1.309745000000000,342,0x60,0x08,Write,ACK
1.309846000000000,342,0x60,0x00,Write,ACK
1.309947000000000,342,0x60,0x00,Write,ACK
1.310721000000000,343,0x60,0x7B,Write,ACK
1.310824000000000,343,0x60,0x00,Write,ACK
1.310925000000000,343,0x60,0x00,Write,ACK
1.311471000000000,344,0x60,0x90,Write,ACK
1.311574000000000,344,0x60,0x00,Write,ACK
1.311676000000000,344,0x60,0x00,Write,ACK
1.312224000000000,345,0x60,0x07,Write,ACK
1.312442000000000,346,0x61,0x00,Read,NAK
1.312984000000000,347,0x60,0x07,Write,ACK
1.313087000000000,347,0x60,0x80,Write,ACK
1.313629000000000,348,0x60,0x07,Write,ACK
1.313847000000000,349,0x61,0x80,Read,NAK
1.314585000000000,350,0x60,0x07,Write,ACK
1.314690000000000,350,0x60,0x00,Write,ACK
1.315241000000000,351,0x60,0x76,Write,ACK
1.315344000000000,351,0x60,0x98,Write,ACK
1.315884000000000,352,0x60,0x78,Write,ACK
1.315987000000000,352,0x60,0x40,Write,ACK
1.316529000000000,353,0x60,0xBB,Write,ACK
1.316632000000000,353,0x60,0x01,Write,ACK
1.317176000000000,354,0x68,0x37,Write,ACK
1.317394000000000,355,0x69,0x73,Read,NAK
1.318973000000000,356,0x60,0x2E,Write,ACK
1.319076000000000,356,0x60,0xC0,Write,ACK
1.319624000000000,357,0x68,0x34,Write,ACK
1.319842000000000,358,0x69,0x00,Read,NAK
1.320456000000000,359,0x60,0xB8,Write,ACK
1.320674000000000,360,0x61,0x01,Read,NAK
1.321218000000000,361,0x60,0xB7,Write,ACK
1.321436000000000,362,0x61,0x07,Read,NAK
1.323585000000000,363,0x60,0x7A,Write,ACK
1.323803000000000,364,0x61,0x6F,Read,NAK
1.324365000000000,365,0x60,0x7A,Write,ACK
1.324583000000000,366,0x61,0x6F,Read,NAK
1.325133000000000,367,0x68,0x37,Write,ACK
1.325351000000000,368,0x69,0x73,Read,NAK
1.325905000000000,369,0x60,0x61,Write,ACK
1.326123000000000,370,0x61,0x00,Read,NAK
1.326916000000000,371,0x68,0x37,Write,ACK
1.327134000000000,372,0x69,0x73,Read,NAK
1.327708000000000,373,0x68,0x34,Write,ACK
1.327926000000000,374,0x69,0x00,Read,NAK
1.359148000000000,375,0x60,0x70,Write,ACK
1.359366000000000,376,0x61,0x00,Read,NAK
1.545157000000000,377,0x60,0x70,Write,ACK
1.545441000000000,378,0x61,0x00,Read,NAK
1.546001000000000,379,0x60,0x61,Write,ACK
1.546219000000000,380,0x61,0x00,Read,NAK
1.736152000000000,381,0x60,0x06,Write,ACK
1.736370000000000,382,0x61,0x2B,Read,NAK
1.737047000000000,383,0x60,0x70,Write,ACK
1.737265000000000,384,0x61,0x00,Read,NAK
1.737827000000000,385,0x68,0xBF,Write,ACK
1.737930000000000,385,0x68,0x05,Write,ACK
1.738716000000000,386,0x60,0x7A,Write,ACK
1.738934000000000,387,0x61,0x6F,Read,NAK
1.739484000000000,388,0x60,0x73,Write,ACK
1.739587000000000,388,0x60,0x08,Write,ACK
1.740130000000000,389,0x60,0x91,Write,ACK
1.740233000000000,389,0x60,0x08,Write,ACK
1.740773000000000,390,0x60,0x94,Write,ACK
1.740991000000000,391,0x61,0x40,Read,NAK
1.743017000000000,392,0x68,0x7F,Write,ACK
1.743120000000000,392,0x68,0x81,Write,ACK
1.743656000000000,393,0x60,0x73,Write,ACK
1.743759000000000,393,0x60,0x02,Write,ACK
1.753878000000000,394,0x68,0x34,Write,ACK
1.754096000000000,395,0x69,0x00,Read,NAK
1.771655000000000,396,0x60,0x70,Write,ACK
1.771873000000000,397,0x61,0x00,Read,NAK
1.773777000000000,398,0x60,0x61,Write,ACK
1.773995000000000,399,0x61,0x00,Read,NAK
1.775304000000000,400,0x68,0x34,Write,ACK
1.775522000000000,401,0x69,0x00,Read,NAK
1.787118000000000,402,0x60,0x06,Write,ACK
1.787335000000000,403,0x61,0x2B,Read,NAK
1.787885000000000,404,0x60,0x08,Write,ACK
1.788103000000000,405,0x61,0x05,Read,NAK
1.788639000000000,406,0x60,0x55,Write,ACK
1.788857000000000,407,0x61,0x00,Read,NAK
1.789397000000000,408,0x60,0x3A,Write,ACK
1.789615000000000,409,0x61,0x00,Read,ACK
1.789718000000000,409,0x61,0x00,Read,ACK
1.789821000000000,409,0x61,0x00,Read,ACK
1.789923000000000,409,0x61,0x00,Read,NAK
1.790713000000000,410,0x60,0x6A,Write,ACK
1.790816000000000,410,0x60,0x01,Write,ACK
1.791352000000000,411,0x60,0x6A,Write,ACK
1.791455000000000,411,0x60,0x00,Write,ACK
1.791989000000000,412,0x60,0x6E,Write,ACK
1.792207000000000,413,0x61,0xD0,Read,ACK
1.792310000000000,413,0x61,0x01,Read,NAK
1.792849000000000,414,0x60,0x6A,Write,ACK
1.792952000000000,414,0x60,0x01,Write,ACK
1.793486000000000,415,0x60,0x6A,Write,ACK
1.793587000000000,415,0x60,0x00,Write,ACK
1.794121000000000,416,0x60,0x6E,Write,ACK
1.794527000000000,417,0x61,0xD0,Read,ACK
1.794632000000000,417,0x61,0x01,Read,NAK
1.795184000000000,418,0x60,0x6A,Write,ACK
1.795287000000000,418,0x60,0x01,Write,ACK
1.795822000000000,419,0x60,0x6A,Write,ACK
1.795925000000000,419,0x60,0x00,Write,ACK
1.796463000000000,420,0x60,0x6E,Write,ACK
1.796681000000000,421,0x61,0xD0,Read,ACK
1.796784000000000,421,0x61,0x01,Read,NAK
1.797330000000000,422,0x60,0x6A,Write,ACK
1.797433000000000,422,0x60,0x01,Write,ACK
1.797973000000000,423,0x60,0x6A,Write,ACK
1.798076000000000,423,0x60,0x00,Write,ACK
1.798849000000000,424,0x60,0x6E,Write,ACK
1.799067000000000,425,0x61,0xD0,Read,ACK
1.799170000000000,425,0x61,0x01,Read,NAK
1.799712000000000,426,0x60,0x6A,Write,ACK
1.799815000000000,426,0x60,0x01,Write,ACK
1.800355000000000,427,0x60,0x6A,Write,ACK
1.800458000000000,427,0x60,0x00,Write,ACK
1.800994000000000,428,0x60,0x6E,Write,ACK
1.801212000000000,429,0x61,0xD0,Read,ACK
1.801314000000000,429,0x61,0x01,Read,NAK
1.801858000000000,430,0x60,0x6A,Write,ACK
1.801961000000000,430,0x60,0x01,Write,ACK
1.802749000000000,431,0x60,0x6A,Write,ACK
1.802852000000000,431,0x60,0x00,Write,ACK
1.803384000000000,432,0x60,0x6E,Write,ACK
1.803602000000000,433,0x61,0xD0,Read,ACK
1.803705000000000,433,0x61,0x01,Read,NAK
1.804250000000000,434,0x60,0x6A,Write,ACK
1.804353000000000,434,0x60,0x01,Write,ACK
1.804893000000000,435,0x60,0x6A,Write,ACK
1.804996000000000,435,0x60,0x00,Write,ACK
1.805528000000000,436,0x60,0x6E,Write,ACK
1.805746000000000,437,0x61,0xD0,Read,ACK
1.805849000000000,437,0x61,0x01,Read,NAK
1.806591000000000,438,0x60,0x6A,Write,ACK
1.806694000000000,438,0x60,0x01,Write,ACK
1.807241000000000,439,0x60,0x6A,Write,ACK
1.807344000000000,439,0x60,0x00,Write,ACK
1.807876000000000,440,0x60,0x6E,Write,ACK
1.808094000000000,441,0x61,0xD0,Read,ACK
1.808197000000000,441,0x61,0x01,Read,NAK
1.808741000000000,442,0x60,0x6A,Write,ACK
1.808842000000000,442,0x60,0x01,Write,ACK
1.809448000000000,443,0x68,0x37,Write,ACK
1.809665000000000,444,0x69,0x73,Read,NAK
1.810215000000000,445,0x68,0x37,Write,ACK
1.810531000000000,446,0x69,0x73,Read,NAK
1.811081000000000,447,0x68,0x29,Write,ACK
1.811184000000000,447,0x68,0x14,Write,ACK
1.811732000000000,448,0x68,0x27,Write,ACK
1.811950000000000,449,0x69,0x01,Read,NAK
1.812618000000000,450,0x60,0x70,Write,ACK
1.812836000000000,451,0x61,0x00,Read,NAK
1.839128000000000,452,0x60,0x70,Write,ACK
1.839346000000000,453,0x61,0x00,Read,NAK
1.839894000000000,454,0x60,0x61,Write,ACK
1.840112000000000,455,0x61,0x00,Read,NAK
1.847317000000000,456,0x68,0x34,Write,ACK
1.847535000000000,457,0x69,0x00,Read,NAK
1.849411000000000,458,0x60,0x70,Write,ACK
1.849629000000000,459,0x61,0x00,Read,NAK
1.863074000000000,460,0x60,0x70,Write,ACK
1.863292000000000,461,0x61,0x00,Read,NAK
1.871088000000000,462,0x68,0x34,Write,ACK
1.871306000000000,463,0x69,0x00,Read,NAK
1.879169000000000,464,0x60,0x70,Write,ACK
1.879387000000000,465,0x61,0x00,Read,NAK
1.895074000000000,466,0x60,0x70,Write,ACK
1.895292000000000,467,0x61,0x00,Read,NAK
1.895840000000000,468,0x60,0x61,Write,ACK
1.896058000000000,469,0x61,0x00,Read,NAK
1.901561000000000,470,0x68,0x34,Write,ACK
1.901843000000000,471,0x69,0x00,Read,NAK
1.911167000000000,472,0x60,0x70,Write,ACK
1.911385000000000,473,0x61,0x00,Read,NAK
1.923072000000000,474,0x60,0x70,Write,ACK
1.923290000000000,475,0x61,0x00,Read,NAK
